Time Stamp,ID,Extended,Dir,Bus,LEN,D1,D2,D3,D4,D5,D6,D7,D8
2301268,00000080,false,Rx,1,8,C7,10,00,00,00,00,00,15,
2301270,0000041A,false,Rx,2,8,00,00,88,13,F4,00,00,9A,
2301272,0000041B,false,Rx,2,8,10,00,00,00,30,75,00,C9,
2301273,0000041C,false,Rx,2,8,00,00,00,00,01,00,00,EE,
2301274,0000041D,false,Rx,2,8,00,00,10,27,00,00,00,75,
2301276,0000041E,false,Rx,2,8,00,00,00,00,00,00,00,59,
2303000,00000110,false,Rx,1,8,00,00,00,00,00,00,00,00,
2306000,000003C3,false,Rx,0,6,00,07,00,00,00,04,00,00,
2311000,000003D2,false,Rx,0,6,04,07,00,00,00,68,00,00,
75853000,00000162,false,Rx,1,8,D1,C0,00,00,00,00,E0,08,
75855000,00000172,false,Rx,1,8,31,32,31,32,3E,00,E0,6A,
75855003,00000082,false,Rx,1,8,C7,10,00,50,00,00,20,E9,
75856000,000003C3,false,Rx,0,6,00,02,FF,FF,FF,F2,00,00,
75857000,00000171,false,Rx,1,8,32,32,32,32,3D,00,E0,10,
75859000,00000105,false,Rx,1,8,00,00,00,00,00,00,40,A0,
75861001,00000123,false,Rx,1,8,14,10,14,10,14,10,E0,6E,
75863000,00000143,false,Rx,1,8,0D,10,16,10,15,10,E0,47,
75865000,00000163,false,Rx,1,8,BA,C0,00,00,00,00,E0,E9,
75866000,000003C3,false,Rx,0,6,00,03,FF,FF,FF,F7,00,00,
75867000,00000173,false,Rx,1,8,32,32,32,32,3F,00,E0,D9,
75868000,00000083,false,Rx,1,8,C7,10,00,50,00,00,20,8C,
75869000,00000103,false,Rx,1,8,00,00,00,00,00,00,40,E3,
75871000,00000115,false,Rx,1,8,11,00,00,00,00,00,00,00,
75873000,00000100,false,Rx,1,8,00,00,00,00,00,00,20,D8,
75875000,00000125,false,Rx,1,8,19,10,1E,10,1A,10,E0,61,
75876000,000003C3,false,Rx,0,6,00,04,FF,FF,FF,ED,00,00,
75877000,00000116,false,Rx,1,8,11,00,00,00,00,00,00,00,
75879000,00000135,false,Rx,1,8,18,10,10,10,18,10,E0,37,
75881001,00000145,false,Rx,1,8,1A,10,1B,10,16,10,E0,17,
75881004,00000084,false,Rx,1,8,C7,10,00,50,00,00,20,AA,
75883000,00000155,false,Rx,1,8,19,10,18,10,0A,10,E0,42,
75885000,00000165,false,Rx,1,8,1F,C1,00,00,00,00,E0,16,
75886000,000003C3,false,Rx,0,6,00,05,FF,FF,FF,FA,00,00,
75887000,00000175,false,Rx,1,8,31,31,31,31,3C,00,E0,3F,
75889000,00000107,false,Rx,1,8,00,00,00,00,00,00,50,A7,
75889003,00000437,false,Rx,2,8,01,00,00,00,6C,02,08,10,
75891000,00000126,false,Rx,1,8,11,10,17,10,12,10,E0,0D,
75893001,00000136,false,Rx,1,8,10,10,12,10,0A,10,E0,85,
75894000,00000085,false,Rx,1,8,C7,10,00,50,00,00,20,CF,
75895000,00000146,false,Rx,1,8,15,10,16,10,18,10,E0,45,
75896000,000003C3,false,Rx,0,6,00,06,FF,FF,FF,FB,00,00,
75897000,00000156,false,Rx,1,8,0D,10,14,10,16,10,E0,ED,
75899000,00000166,false,Rx,1,8,F8,C0,00,00,00,00,E0,61,
75901000,000003D2,false,Rx,0,6,04,07,00,00,00,69,00,00,
75901001,00000106,false,Rx,1,8,00,00,00,00,00,00,50,C2,
75901010,0000041A,false,Rx,2,8,7E,0D,87,13,CB,CE,00,8B,
75901018,0000041B,false,Rx,2,8,31,32,00,05,2F,75,00,6D,
75901019,0000041C,false,Rx,2,8,F4,01,00,00,07,18,00,A7,
75901020,0000041D,false,Rx,2,8,45,25,10,27,00,02,00,6B,
75901021,0000041E,false,Rx,2,8,00,00,00,00,02,6C,00,A6,
75903000,00000176,false,Rx,1,8,32,32,32,32,3D,00,E0,36,
75905000,00000117,false,Rx,1,8,11,00,00,00,00,00,00,00,
75906000,000003C3,false,Rx,0,6,00,07,FF,FF,FF,F8,00,00,
75907000,00000105,false,Rx,1,8,00,00,00,00,00,00,50,6D,
75907003,00000086,false,Rx,1,8,C7,10,00,50,00,00,20,60,
75909000,00000127,false,Rx,1,8,F8,0F,F8,0F,F4,0F,E0,E8,
75911000,00000137,false,Rx,1,8,F4,0F,F7,0F,F5,0F,E0,BE,
75913000,00000102,false,Rx,1,8,00,00,00,00,00,00,50,4B,
75915000,00000147,false,Rx,1,8,F6,0F,F2,0F,F7,0F,E0,82,
75916000,000003C3,false,Rx,0,6,00,08,00,00,00,02,00,00,
75917000,00000157,false,Rx,1,8,F7,0F,F7,0F,F6,0F,E0,91,
75919000,00000103,false,Rx,1,8,00,00,00,00,00,00,50,2E,
75920001,00000087,false,Rx,1,8,C7,10,00,50,00,00,20,05,
75921001,00000177,false,Rx,1,8,31,32,31,31,40,00,E0,7D,
75923000,00000110,false,Rx,1,8,11,00,00,00,00,00,00,00,
75925000,00000120,false,Rx,1,8,15,10,1A,10,1A,10,10,FC,
75926000,000003C3,false,Rx,0,6,00,09,FF,FF,FF,F2,00,00,
75927000,00000130,false,Rx,1,8,18,10,11,10,15,10,10,4B,
75929000,00000140,false,Rx,1,8,17,10,17,10,18,10,10,A9,
75931000,00000160,false,Rx,1,8,31,C1,00,00,00,00,10,EB,
75933000,00000111,false,Rx,1,8,11,00,00,00,00,00,00,00,
75933002,00000080,false,Rx,1,8,C7,10,00,50,00,00,30,EE,
75935000,000001D0,false,Rx,1,8,22,22,22,22,22,22,29,92,
75936000,000003C3,false,Rx,0,6,00,0A,FF,FF,FF,F1,00,00,
75937000,00000170,false,Rx,1,8,32,32,32,32,41,00,10,48,
75939000,00000121,false,Rx,1,8,18,10,1C,10,16,10,00,D9,
75941000,00000131,false,Rx,1,8,16,10,13,10,13,10,00,33,
75943000,000001D6,false,Rx,1,8,22,22,22,22,22,22,29,92,
75945000,00000141,false,Rx,1,8,16,10,19,10,16,10,00,43,
75946000,000003C3,false,Rx,0,6,00,0B,FF,FF,FF,F6,00,00,
75946001,00000081,false,Rx,1,8,C7,10,00,50,00,00,30,8B,
75947000,000001D7,false,Rx,1,8,22,22,22,22,22,22,29,92,
75949000,00000112,false,Rx,1,8,11,00,00,00,00,00,00,00,
75951000,00000151,false,Rx,1,8,17,10,1A,10,13,10,00,37,
75953000,00000122,false,Rx,1,8,0F,10,12,10,0F,10,00,CC,
75955000,00000171,false,Rx,1,8,32,32,32,32,3E,00,00,2E,
75956000,000003C3,false,Rx,0,6,00,0C,FF,FF,FF,E3,00,00,
75957000,000001D3,false,Rx,1,8,22,22,22,22,22,22,29,92,
75959000,00000082,false,Rx,1,8,C7,10,00,50,00,00,30,24,
75959002,00000172,false,Rx,1,8,31,32,31,32,3D,00,00,54,
75961001,000001D2,false,Rx,1,8,22,22,22,22,22,22,29,92,
75963000,00000106,false,Rx,1,8,00,00,00,00,00,00,60,88,
75965000,00000113,false,Rx,1,8,11,00,00,00,00,00,00,00,
75966000,000003C3,false,Rx,0,6,00,0D,FF,FF,FF,F0,00,00,
75967000,00000133,false,Rx,1,8,15,10,EC,0F,16,10,00,35,
75969001,00000153,false,Rx,1,8,1A,10,16,10,13,10,00,D9,
75971000,000001C0,false,Rx,1,8,22,22,22,22,25,22,42,22,
75972001,00000083,false,Rx,1,8,C7,10,00,50,00,00,30,41,
75973000,00000102,false,Rx,1,8,00,00,00,00,00,00,60,01,
75975000,00000103,false,Rx,1,8,00,00,00,00,00,00,60,64,
75976000,000003C3,false,Rx,0,6,00,0E,FF,FF,FF,E8,00,00,
75977000,00000101,false,Rx,1,8,00,00,00,00,00,00,60,AE,
75979000,000001C6,false,Rx,1,8,22,22,22,22,25,22,42,22,
75981000,000001C7,false,Rx,1,8,22,22,22,22,25,22,42,22,
75983000,000001C5,false,Rx,1,8,22,22,22,22,25,22,42,22,
75985000,00000084,false,Rx,1,8,C7,10,00,50,00,00,30,67,
75985002,00000173,false,Rx,1,8,32,32,32,32,3F,00,00,6B,
75986000,000003C3,false,Rx,0,6,00,0F,FF,FF,FF,F4,00,00,
75987000,00000115,false,Rx,1,8,11,00,00,00,00,00,00,00,
75989000,000001C2,false,Rx,1,8,22,22,22,22,25,22,42,22,
75989001,00000437,false,Rx,2,8,01,00,00,00,6C,02,09,97,
75991000,000001C3,false,Rx,1,8,22,22,22,22,25,22,42,22,
75993000,000001C1,false,Rx,1,8,22,22,22,22,25,22,42,22,
75995000,00000125,false,Rx,1,8,19,10,1E,10,1A,10,00,D3,
75996000,000003C3,false,Rx,0,6,00,00,FF,FF,FF,FA,00,00,
75997000,00000135,false,Rx,1,8,18,10,10,10,18,10,00,85,
75998001,00000085,false,Rx,1,8,C7,10,00,50,00,00,30,02,
75999000,00000116,false,Rx,1,8,11,00,00,00,00,00,00,00,
76001000,000003D2,false,Rx,0,6,04,08,00,00,00,69,00,00,
76001001,00000145,false,Rx,1,8,1A,10,1A,10,16,10,00,CF,
76001010,0000041A,false,Rx,2,8,7E,0D,87,13,CB,CE,01,0C,
76001018,0000041B,false,Rx,2,8,31,32,00,05,2F,75,01,EA,
76001019,0000041C,false,Rx,2,8,F4,01,00,00,07,18,01,20,
76001020,0000041D,false,Rx,2,8,45,25,10,27,00,02,01,EC,
76001021,0000041E,false,Rx,2,8,00,00,00,00,02,6C,01,21,
76003000,00000100,false,Rx,1,8,00,00,00,00,00,00,40,4C,
76005000,00000155,false,Rx,1,8,19,10,18,10,09,10,00,7C,
76006000,000003C3,false,Rx,0,6,00,01,FF,FF,FF,FB,00,00,
76007000,00000175,false,Rx,1,8,31,31,31,31,3C,00,00,8D,
76009000,00000126,false,Rx,1,8,11,10,17,10,12,10,00,BF,
76011000,00000136,false,Rx,1,8,10,10,12,10,0C,10,00,32,
76011004,00000086,false,Rx,1,8,C7,10,00,50,00,00,30,AD,
76013000,00000156,false,Rx,1,8,0E,10,14,10,16,10,00,B8,
76015000,00000176,false,Rx,1,8,32,32,32,32,3D,00,00,84,
76016000,000003C3,false,Rx,0,6,00,02,FF,FF,FF,F1,00,00,
76017000,00000127,false,Rx,1,8,F8,0F,F8,0F,F4,0F,00,5A,
76019001,00000147,false,Rx,1,8,F4,0F,F2,0F,F7,0F,00,8A,
76021001,00000167,false,Rx,1,8,77,BF,00,00,00,00,00,E2,
76023000,00000105,false,Rx,1,8,00,00,00,00,00,00,70,EA,
76024000,00000087,false,Rx,1,8,C7,10,00,50,00,00,30,C8,
76025000,00000103,false,Rx,1,8,00,00,00,00,00,00,70,A9,
76026000,000003C3,false,Rx,0,6,00,03,00,00,00,05,00,00,
76027000,00000101,false,Rx,1,8,00,00,00,00,00,00,70,63,
76029000,00000110,false,Rx,1,8,11,00,00,00,00,00,00,00,
76031000,00000120,false,Rx,1,8,15,10,1A,10,1A,10,20,B6,
76033000,00000140,false,Rx,1,8,17,10,17,10,18,10,20,E3,
76035000,00000160,false,Rx,1,8,31,C1,00,00,00,00,20,A1,
76036000,000003C3,false,Rx,0,6,00,04,FF,FF,FF,F8,00,00,
76037000,00000177,false,Rx,1,8,31,32,31,31,40,00,00,CF,
76037004,00000080,false,Rx,1,8,C7,10,00,50,00,00,40,B7,
76039000,00000111,false,Rx,1,8,11,00,00,00,00,00,00,00,
76041000,00000121,false,Rx,1,8,18,10,1C,10,16,10,10,14,
76043000,00000131,false,Rx,1,8,18,10,13,10,13,10,10,FF,
76045000,00000141,false,Rx,1,8,16,10,19,10,15,10,10,02,
76046000,000003C3,false,Rx,0,6,00,05,FF,FF,FF,EA,00,00,
76047000,00000170,false,Rx,1,8,32,32,32,32,42,00,20,8E,
76049000,00000151,false,Rx,1,8,17,10,19,10,13,10,10,44,
76050000,00000081,false,Rx,1,8,C7,10,00,50,00,00,40,D2,
76051000,00000161,false,Rx,1,8,32,C1,00,00,00,00,10,69,
76053001,00000171,false,Rx,1,8,32,32,32,32,3E,00,10,E3,
76055000,00000112,false,Rx,1,8,11,00,00,00,00,00,00,00,
76056000,000003C3,false,Rx,0,6,00,06,FF,FF,FF,F1,00,00,
76057000,00000122,false,Rx,1,8,0F,10,14,10,0F,10,10,60,
76059000,00000152,false,Rx,1,8,0B,10,0F,10,13,10,10,66,
76061001,00000100,false,Rx,1,8,00,00,00,00,00,00,50,81,
76063000,00000113,false,Rx,1,8,11,00,00,00,00,00,00,00,
76063002,00000082,false,Rx,1,8,C7,10,00,50,00,00,40,7D,
76065000,00000123,false,Rx,1,8,14,10,13,10,16,10,10,19,
76066000,000003C3,false,Rx,0,6,00,07,FF,FF,FF,EA,00,00,
76067000,00000106,false,Rx,1,8,00,00,00,00,00,00,80,3A,
76069000,00000107,false,Rx,1,8,00,00,00,00,00,00,80,5F,
76071000,00000133,false,Rx,1,8,15,10,EC,0F,16,10,10,F8,
76073000,00000105,false,Rx,1,8,00,00,00,00,00,00,80,95,
76075000,00000102,false,Rx,1,8,00,00,00,00,00,00,80,B3,
76076000,000003C3,false,Rx,0,6,00,08,FF,FF,FF,FA,00,00,
76076001,00000083,false,Rx,1,8,C7,10,00,50,00,00,40,18,
76077000,00000103,false,Rx,1,8,00,00,00,00,00,00,80,D6,
76079000,00000101,false,Rx,1,8,00,00,00,00,00,00,80,1C,
76081001,00000173,false,Rx,1,8,32,32,32,32,40,00,10,68,
76083000,00000115,false,Rx,1,8,11,00,00,00,00,00,00,00,
76085000,00000125,false,Rx,1,8,19,10,1E,10,1A,10,10,1E,
76086000,000003C3,false,Rx,0,6,00,09,FF,FF,FF,FA,00,00,
76087000,00000135,false,Rx,1,8,18,10,10,10,16,10,10,41,
76089000,00000145,false,Rx,1,8,1A,10,1B,10,16,10,10,68,
76089003,00000084,false,Rx,1,8,C7,10,00,50,00,00,40,3E,
76089004,000003D8,false,Rx,2,3,91,02,00,00,00,00,00,00,
76091000,00000437,false,Rx,2,8,01,00,00,00,6C,02,0A,1E,
76091002,00000155,false,Rx,1,8,19,10,18,10,09,10,10,B1,
76093000,00000116,false,Rx,1,8,11,00,00,00,00,00,00,00,
76095000,00000165,false,Rx,1,8,1F,C1,00,00,00,00,10,69,
76096000,000003C3,false,Rx,0,6,00,0A,FF,FF,FF,EF,00,00,
76097000,00000175,false,Rx,1,8,31,31,31,31,3C,00,10,40,
76099000,00000100,false,Rx,1,8,00,00,00,00,00,00,60,CB,
76101000,000003D2,false,Rx,0,6,04,09,00,00,00,69,00,00,
76101001,00000126,false,Rx,1,8,11,10,16,10,10,10,10,1B,
76101010,0000041A,false,Rx,2,8,7E,0D,87,13,CB,CE,02,85,
76101017,0000041B,false,Rx,2,8,31,32,00,05,2F,75,02,63,
76101019,0000041C,false,Rx,2,8,F4,01,00,00,07,18,02,A9,
76101020,0000041D,false,Rx,2,8,45,25,10,27,00,02,02,65,
76101021,0000041E,false,Rx,2,8,00,00,00,00,02,6C,02,A8,
76102000,00000085,false,Rx,1,8,C7,10,00,50,00,00,40,5B,
76103000,00000136,false,Rx,1,8,10,10,12,10,0C,10,10,FF,
76105000,00000146,false,Rx,1,8,15,10,16,10,18,10,10,3A,
76106000,000003C3,false,Rx,0,6,00,0B,FF,FF,FF,F9,00,00,
76107000,00000156,false,Rx,1,8,0E,10,13,10,16,10,10,7E,
76109000,00000166,false,Rx,1,8,F8,C0,00,00,00,00,10,1E,
76111000,00000176,false,Rx,1,8,32,32,32,32,3D,00,10,49,
76113000,00000117,false,Rx,1,8,11,00,00,00,00,00,00,00,
76115000,00000107,false,Rx,1,8,00,00,00,00,00,00,90,92,
76115003,00000086,false,Rx,1,8,C7,10,00,50,00,00,40,F4,
76116000,000003C3,false,Rx,0,6,00,0C,FF,FF,FF,F6,00,00,
76117000,00000106,false,Rx,1,8,00,00,00,00,00,00,90,F7,
76119000,00000105,false,Rx,1,8,00,00,00,00,00,00,90,58,
76121000,00000127,false,Rx,1,8,F8,0F,F8,0F,F4,0F,10,97,
76123000,00000137,false,Rx,1,8,F5,0F,F7,0F,F4,0F,10,13,
76125001,00000102,false,Rx,1,8,00,00,00,00,00,00,90,7E,
76126000,000003C3,false,Rx,0,6,00,0D,FF,FF,FF,EF,00,00,
76127000,00000147,false,Rx,1,8,F6,0F,F2,0F,F7,0F,10,FD,
76128001,00000087,false,Rx,1,8,C7,10,00,50,00,00,40,91,
76129000,00000157,false,Rx,1,8,F7,0F,F7,0F,F6,0F,10,EE,
76131000,00000103,false,Rx,1,8,00,00,00,00,00,00,90,1B,
76133000,00000101,false,Rx,1,8,00,00,00,00,00,00,90,D1,
76135000,00000177,false,Rx,1,8,32,32,31,31,40,00,10,E5,
76136000,000003C3,false,Rx,0,6,00,0E,FF,FF,FF,EB,00,00,
76137000,00000111,false,Rx,1,8,11,00,00,00,00,00,00,00,
76139000,00000121,false,Rx,1,8,18,10,1A,10,16,10,20,3F,
76141001,00000131,false,Rx,1,8,18,10,13,10,13,10,20,B5,
76141004,00000080,false,Rx,1,8,C7,10,00,50,00,00,50,7A,
76143000,000001D0,false,Rx,1,8,22,22,22,22,22,22,29,92,
76145000,00000141,false,Rx,1,8,17,10,17,10,15,10,20,03,
76146000,000003C3,false,Rx,0,6,00,0F,FF,FF,FF,F4,00,00,
76147000,00000151,false,Rx,1,8,17,10,19,10,13,10,20,0E,
76149000,00000161,false,Rx,1,8,32,C1,00,00,00,00,20,23,
76151000,00000112,false,Rx,1,8,11,00,00,00,00,00,00,00,
76153000,00000122,false,Rx,1,8,0F,10,14,10,0F,10,20,2A,
76154001,00000081,false,Rx,1,8,C7,10,00,50,00,00,50,1F,
76155000,00000100,false,Rx,1,8,00,00,00,00,00,00,70,06,
76156000,000003C3,false,Rx,0,6,00,00,FF,FF,FF,F2,00,00,
76157000,00000132,false,Rx,1,8,0A,10,0A,10,0D,10,20,FB,
76159000,00000142,false,Rx,1,8,10,10,0F,10,0F,10,20,AC,
76161001,00000152,false,Rx,1,8,0C,10,10,10,14,10,20,BA,
76163000,00000162,false,Rx,1,8,D1,C0,00,00,00,00,20,3D,
76165000,000001D6,false,Rx,1,8,22,22,22,22,22,22,29,92,
76166000,000003C3,false,Rx,0,6,00,01,FF,FF,FF,E7,00,00,
76167000,000001D5,false,Rx,1,8,22,22,22,22,22,22,29,92,
76167002,00000082,false,Rx,1,8,C7,10,00,50,00,00,50,B0,
76169000,00000171,false,Rx,1,8,32,32,32,32,3D,00,20,25,
76171000,000001D3,false,Rx,1,8,22,22,22,22,22,22,29,92,
76173000,00000113,false,Rx,1,8,11,00,00,00,00,00,00,00,
76175000,00000133,false,Rx,1,8,15,10,EC,0F,16,10,20,B2,
76176000,000003C3,false,Rx,0,6,00,02,FF,FF,FF,ED,00,00,
76177000,00000106,false,Rx,1,8,00,00,00,00,00,00,A0,BD,
76179000,000001D1,false,Rx,1,8,22,22,22,22,22,22,29,92,
76180000,00000083,false,Rx,1,8,C7,10,00,50,00,00,50,D5,
76181001,000001C0,false,Rx,1,8,22,22,22,22,25,22,42,22,
76183000,00000102,false,Rx,1,8,00,00,00,00,00,00,A0,34,
76185000,00000103,false,Rx,1,8,00,00,00,00,00,00,A0,51,
76186000,000003C3,false,Rx,0,6,00,03,FF,FF,FF,FA,00,00,
76187000,00000101,false,Rx,1,8,00,00,00,00,00,00,A0,9B,
76189000,00000173,false,Rx,1,8,32,32,32,32,40,00,20,22,
76189003,00000437,false,Rx,2,8,01,00,00,00,6C,02,0B,99,
76191000,000001C6,false,Rx,1,8,22,22,22,22,25,22,42,22,
76193000,000001C7,false,Rx,1,8,22,22,22,22,25,22,42,22,
76193002,00000084,false,Rx,1,8,C7,10,00,50,00,00,50,F3,
76195000,00000115,false,Rx,1,8,11,00,00,00,00,00,00,00,
76196000,000003C3,false,Rx,0,6,00,04,FF,FF,FF,F8,00,00,
76197000,000001C5,false,Rx,1,8,22,22,22,22,25,22,42,22,
76199000,00000125,false,Rx,1,8,19,10,1E,10,1B,10,20,DB,
76201000,000003D2,false,Rx,0,6,04,0A,00,00,00,69,00,00,
76201001,000001C2,false,Rx,1,8,22,22,22,22,25,22,42,22,
76201008,0000041A,false,Rx,2,8,7E,0D,87,13,CB,CE,03,02,
76201016,0000041B,false,Rx,2,8,31,32,00,05,2F,75,03,E4,
76201017,0000041C,false,Rx,2,8,F4,01,00,00,07,18,03,2E,
76201018,0000041D,false,Rx,2,8,45,25,10,27,00,02,03,E2,
76201020,0000041E,false,Rx,2,8,00,00,00,00,02,6C,03,2F,
76203000,00000135,false,Rx,1,8,18,10,10,10,16,10,20,0B,
76205000,00000145,false,Rx,1,8,1A,10,1A,10,16,10,20,48,
76206000,000003C3,false,Rx,0,6,00,05,FF,FF,FF,F8,00,00,
76206001,00000085,false,Rx,1,8,C7,10,00,50,00,00,50,96,
76207000,000001C3,false,Rx,1,8,22,22,22,22,25,22,42,22,
76209001,00000100,false,Rx,1,8,00,00,00,00,00,00,80,79,
76211000,00000155,false,Rx,1,8,19,10,18,10,09,10,20,FB,
76213000,00000175,false,Rx,1,8,31,31,31,31,3C,00,20,0A,
76215000,00000126,false,Rx,1,8,12,10,17,10,12,10,20,DF,
76216000,000003C3,false,Rx,0,6,00,06,FF,FF,FF,F0,00,00,
76217000,00000136,false,Rx,1,8,10,10,12,10,0C,10,20,B5,
76219000,00000156,false,Rx,1,8,0D,10,14,10,14,10,20,DB,
76219003,00000086,false,Rx,1,8,C7,10,00,50,00,00,50,39,
76221001,00000176,false,Rx,1,8,32,32,32,32,3D,00,20,03,
76223000,00000117,false,Rx,1,8,11,00,00,00,00,00,00,00,
76225000,00000127,false,Rx,1,8,F8,0F,F9,0F,F4,0F,20,B7,
76226000,000003C3,false,Rx,0,6,00,07,FF,FF,FF,FB,00,00,
76227000,00000137,false,Rx,1,8,F5,0F,F7,0F,F4,0F,20,59,
76229000,00000147,false,Rx,1,8,F4,0F,F2,0F,F7,0F,20,0D,
76231000,00000157,false,Rx,1,8,F7,0F,F7,0F,F6,0F,20,A4,
76232001,00000087,false,Rx,1,8,C7,10,00,50,00,00,50,5C,
76233000,00000107,false,Rx,1,8,00,00,00,00,00,00,B0,15,
76235000,00000105,false,Rx,1,8,00,00,00,00,00,00,B0,DF,
76236000,000003C3,false,Rx,0,6,00,08,FF,FF,FF,F2,00,00,
76237001,00000110,false,Rx,1,8,11,00,00,00,00,00,00,00,
76239000,00000103,false,Rx,1,8,00,00,00,00,00,00,B0,9C,
76241000,00000101,false,Rx,1,8,00,00,00,00,00,00,B0,56,
76243000,00000120,false,Rx,1,8,15,10,1A,10,1A,10,30,7B,
76245000,00000130,false,Rx,1,8,18,10,11,10,15,10,30,CC,
76245003,00000080,false,Rx,1,8,C7,10,00,50,00,00,60,30,
76246000,000003C3,false,Rx,0,6,00,09,FF,FF,FF,F8,00,00,
76247000,00000140,false,Rx,1,8,17,10,17,10,18,10,30,2E,
76249000,00000150,false,Rx,1,8,08,10,1E,10,19,10,30,47,
76251000,00000170,false,Rx,1,8,32,32,32,32,42,00,30,43,
76253000,00000121,false,Rx,1,8,18,10,1A,10,16,10,30,F2,
76255000,00000131,false,Rx,1,8,16,10,13,10,13,10,30,79,
76256000,000003C3,false,Rx,0,6,00,0A,FF,FF,FF,EC,00,00,
76257000,00000141,false,Rx,1,8,16,10,19,10,16,10,30,09,
76258001,00000081,false,Rx,1,8,C7,10,00,50,00,00,60,55,
76259000,00000112,false,Rx,1,8,11,00,00,00,00,00,00,00,
76261001,00000151,false,Rx,1,8,17,10,1A,10,13,10,30,7D,
76263000,00000122,false,Rx,1,8,0F,10,14,10,0F,10,30,E7,
76265000,00000161,false,Rx,1,8,32,C1,00,00,00,00,30,EE,
76266000,000003C3,false,Rx,0,6,00,0B,FF,FF,FF,E8,00,00,
76267000,00000142,false,Rx,1,8,10,10,0F,10,0F,10,30,61,
76269000,00000113,false,Rx,1,8,11,00,00,00,00,00,00,00,
76271000,00000123,false,Rx,1,8,14,10,14,10,16,10,30,95,
76271003,00000082,false,Rx,1,8,C7,10,00,50,00,00,60,FA,
76273000,00000133,false,Rx,1,8,15,10,EC,0F,16,10,30,7F,
76275000,00000143,false,Rx,1,8,0F,10,16,10,16,10,30,89,
76276000,000003C3,false,Rx,0,6,00,0C,00,00,00,00,00,00,
76277000,00000153,false,Rx,1,8,1A,10,16,10,13,10,30,93,
76279000,00000163,false,Rx,1,8,BA,C0,00,00,00,00,30,11,
76281001,00000106,false,Rx,1,8,00,00,00,00,00,00,C0,29,
76283000,00000107,false,Rx,1,8,00,00,00,00,00,00,C0,4C,
76284000,00000083,false,Rx,1,8,C7,10,00,50,00,00,60,9F,
76285000,00000105,false,Rx,1,8,00,00,00,00,00,00,C0,86,
76286000,000003C3,false,Rx,0,6,00,0D,FF,FF,FF,ED,00,00,
76287000,00000172,false,Rx,1,8,31,32,31,32,3D,00,30,1E,
76289000,00000102,false,Rx,1,8,00,00,00,00,00,00,C0,A0,
76289003,00000437,false,Rx,2,8,01,00,00,00,6C,02,0C,0C,
76291000,00000103,false,Rx,1,8,00,00,00,00,00,00,C0,C5,
76293000,00000101,false,Rx,1,8,00,00,00,00,00,00,C0,0F,
76295000,00000173,false,Rx,1,8,32,32,32,32,3F,00,30,21,
76296000,000003C3,false,Rx,0,6,00,0E,FF,FF,FF,FD,00,00,
76297000,00000115,false,Rx,1,8,11,00,00,00,00,00,00,00,
76297002,00000084,false,Rx,1,8,C7,10,00,50,00,00,60,B9,
76299000,00000125,false,Rx,1,8,19,10,1E,10,1A,10,30,99,
76301000,00000135,false,Rx,1,8,18,10,10,10,18,10,30,CF,
76301009,0000041A,false,Rx,2,8,7E,0D,87,13,CB,CE,04,97,
76301016,0000041B,false,Rx,2,8,31,32,00,05,2F,75,04,71,
76301018,0000041C,false,Rx,2,8,F4,01,00,00,07,18,04,BB,
76301019,0000041D,false,Rx,2,8,45,25,10,27,00,02,04,77,
76301020,0000041E,false,Rx,2,8,00,00,00,00,02,6C,04,BA,
76301032,000003D2,false,Rx,0,6,04,0B,00,00,00,69,00,00,
76303000,00000145,false,Rx,1,8,1A,10,1B,10,15,10,30,63,
76305000,00000155,false,Rx,1,8,19,10,18,10,09,10,30,36,
76306000,000003C3,false,Rx,0,6,00,0F,FF,FF,FF,F0,00,00,
76307000,00000165,false,Rx,1,8,1F,C1,00,00,00,00,30,EE,
76309000,00000116,false,Rx,1,8,11,00,00,00,00,00,00,00,
76310001,00000085,false,Rx,1,8,C7,10,00,50,00,00,60,DC,
76311001,00000175,false,Rx,1,8,31,31,31,31,3C,00,30,C7,
76313000,00000100,false,Rx,1,8,00,00,00,00,00,00,A0,FE,
76315000,00000126,false,Rx,1,8,11,10,17,10,12,10,30,F5,
76316000,000003C3,false,Rx,0,6,00,00,00,00,00,00,00,00,
76317000,00000136,false,Rx,1,8,10,10,12,10,0A,10,30,7D,
76319000,00000146,false,Rx,1,8,16,10,17,10,16,10,30,39,
76321000,00000156,false,Rx,1,8,0E,10,14,10,14,10,30,F1,
76323000,00000166,false,Rx,1,8,F8,C0,00,00,00,00,30,99,
76323003,00000086,false,Rx,1,8,C7,10,00,50,00,00,60,73,
76325000,00000176,false,Rx,1,8,32,32,32,32,3D,00,30,CE,
76326000,000003C3,false,Rx,0,6,00,01,FF,FF,FF,F4,00,00,
76327000,00000117,false,Rx,1,8,11,00,00,00,00,00,00,00,
76329000,00000127,false,Rx,1,8,F8,0F,F8,0F,F4,0F,30,10,
76331001,00000147,false,Rx,1,8,F4,0F,F2,0F,F7,0F,30,C0,
76333000,00000167,false,Rx,1,8,77,BF,00,00,00,00,30,A8,
76335000,00000107,false,Rx,1,8,00,00,00,00,00,00,D0,81,
76336000,000003C3,false,Rx,0,6,00,02,FF,FF,FF,F9,00,00,
76336002,00000087,false,Rx,1,8,C7,10,00,50,00,00,60,16,
76337000,00000106,false,Rx,1,8,00,00,00,00,00,00,D0,E4,
76339000,00000110,false,Rx,1,8,11,00,00,00,00,00,00,00,
76341001,00000105,false,Rx,1,8,00,00,00,00,00,00,D0,4B,
76343000,00000102,false,Rx,1,8,00,00,00,00,00,00,D0,6D,
76345000,00000103,false,Rx,1,8,00,00,00,00,00,00,D0,08,
76346000,000003C3,false,Rx,0,6,00,03,FF,FF,FF,F9,00,00,
76347000,00000101,false,Rx,1,8,00,00,00,00,00,00,D0,C2,
76349000,00000120,false,Rx,1,8,15,10,1A,10,1A,10,40,22,
76349003,00000080,false,Rx,1,8,C7,10,00,50,00,00,70,FD,
76351000,00000140,false,Rx,1,8,17,10,17,10,18,10,40,77,
76353000,00000160,false,Rx,1,8,31,C1,00,00,00,00,40,35,
76355000,00000170,false,Rx,1,8,32,32,32,32,41,00,40,96,
76356000,000003C3,false,Rx,0,6,00,04,FF,FF,FF,FB,00,00,
76357000,00000121,false,Rx,1,8,18,10,1A,10,16,10,40,AB,
76359000,00000131,false,Rx,1,8,16,10,13,10,13,10,40,20,
76361000,00000141,false,Rx,1,8,16,10,19,10,15,10,40,DC,
76362000,00000081,false,Rx,1,8,C7,10,00,50,00,00,70,98,
76363000,000001D0,false,Rx,1,8,22,22,22,22,22,22,29,92,
76365000,00000171,false,Rx,1,8,32,32,32,32,3E,00,40,3D,
76366000,000003C3,false,Rx,0,6,00,05,00,00,00,01,00,00,
76367000,00000112,false,Rx,1,8,11,00,00,00,00,00,00,00,
76369000,00000132,false,Rx,1,8,0A,10,0A,10,0D,10,40,6F,
76371001,00000152,false,Rx,1,8,0C,10,10,10,13,10,40,A4,
76373000,00000100,false,Rx,1,8,00,00,00,00,00,00,B0,33,
76375000,00000082,false,Rx,1,8,C7,10,00,50,00,00,70,37,
76375002,000001D6,false,Rx,1,8,22,22,22,22,22,22,29,92,
76376000,000003C3,false,Rx,0,6,00,06,FF,FF,FF,FB,00,00,
76377000,000001D7,false,Rx,1,8,22,22,22,22,22,22,29,92,
76379000,00000113,false,Rx,1,8,11,00,00,00,00,00,00,00,
76381001,00000123,false,Rx,1,8,14,10,14,10,16,10,40,CC,
76383000,00000133,false,Rx,1,8,15,10,EC,0F,16,10,40,26,
76385000,00000153,false,Rx,1,8,1A,10,16,10,13,10,40,CA,
76386000,000003C3,false,Rx,0,6,00,07,FF,FF,FF,F5,00,00,
76387000,000001D2,false,Rx,1,8,22,22,22,22,22,22,29,92,
76388001,00000083,false,Rx,1,8,C7,10,00,50,00,00,70,52,
76389000,00000172,false,Rx,1,8,31,32,31,32,3E,00,40,CB,
76389003,00000437,false,Rx,2,8,01,00,00,00,6C,02,0D,8B,
76391000,00000106,false,Rx,1,8,00,00,00,00,00,00,E0,AE,
76393000,000001D1,false,Rx,1,8,22,22,22,22,22,22,29,92,
76395000,000001C0,false,Rx,1,8,22,22,22,22,25,22,42,22,
76396000,000003C3,false,Rx,0,6,00,08,FF,FF,FF,EE,00,00,
76397000,00000173,false,Rx,1,8,32,32,32,32,3F,00,40,78,
76399000,00000102,false,Rx,1,8,00,00,00,00,00,00,E0,27,
76401000,000003D2,false,Rx,0,6,04,0C,00,00,00,69,00,00,
76401001,00000103,false,Rx,1,8,00,00,00,00,00,00,E0,42,
76401004,00000084,false,Rx,1,8,C7,10,00,50,00,00,70,74,
76401011,0000041A,false,Rx,2,8,7E,0D,87,13,CB,CE,05,10,
76401018,0000041B,false,Rx,2,8,31,32,00,05,2F,75,05,F6,
76401020,0000041C,false,Rx,2,8,F4,01,00,00,07,18,05,3C,
76401021,0000041D,false,Rx,2,8,45,25,10,27,00,02,05,F0,
76401022,0000041E,false,Rx,2,8,00,00,00,00,02,6C,05,3D,
76403000,00000101,false,Rx,1,8,00,00,00,00,00,00,E0,88,
76405000,00000115,false,Rx,1,8,11,00,00,00,00,00,00,00,
76406000,000003C3,false,Rx,0,6,00,09,FF,FF,FF,F4,00,00,
76407001,000001C6,false,Rx,1,8,22,22,22,22,25,22,42,22,
76409000,000001C7,false,Rx,1,8,22,22,22,22,25,22,42,22,
76411000,00000125,false,Rx,1,8,19,10,1E,10,1A,10,40,C0,
76413001,00000135,false,Rx,1,8,18,10,12,10,16,10,40,4B,
76414001,00000085,false,Rx,1,8,C7,10,00,50,00,00,70,11,
76415000,00000145,false,Rx,1,8,1A,10,1A,10,15,10,40,50,
76416000,000003C3,false,Rx,0,6,00,0A,00,00,00,00,00,00,
76417000,00000155,false,Rx,1,8,19,10,18,10,09,10,40,6F,
76419000,00000116,false,Rx,1,8,11,00,00,00,00,00,00,00,
76421001,000001C5,false,Rx,1,8,22,22,22,22,25,22,42,22,
76423000,00000136,false,Rx,1,8,10,10,13,10,0C,10,40,4B,
76425000,00000156,false,Rx,1,8,0E,10,13,10,14,10,40,A3,
76426000,000003C3,false,Rx,0,6,00,0B,FF,FF,FF,EF,00,00,
76427000,00000176,false,Rx,1,8,32,32,32,32,3D,00,40,97,
76427003,00000086,false,Rx,1,8,C7,10,00,50,00,00,70,BE,
76429000,00000117,false,Rx,1,8,11,00,00,00,00,00,00,00,
76431000,00000127,false,Rx,1,8,F8,0F,F9,0F,F6,0F,40,20,
76433000,00000137,false,Rx,1,8,F5,0F,F7,0F,F4,0F,40,CD,
76435000,00000147,false,Rx,1,8,F6,0F,F2,0F,F7,0F,40,23,
76436000,000003C3,false,Rx,0,6,00,0C,FF,FF,FF,F7,00,00,
76437000,00000157,false,Rx,1,8,F7,0F,F7,0F,F6,0F,40,30,
76439000,00000110,false,Rx,1,8,11,00,00,00,00,00,00,00,
76440001,00000087,false,Rx,1,8,C7,10,00,50,00,00,70,DB,
76441000,00000167,false,Rx,1,8,77,BF,00,00,00,00,40,F1,
76443000,00000107,false,Rx,1,8,00,00,00,00,00,00,00,79,
76445000,00000106,false,Rx,1,8,00,00,00,00,00,00,00,1C,
76446000,000003C3,false,Rx,0,6,00,0D,FF,FF,FF,EC,00,00,
76447000,00000177,false,Rx,1,8,32,32,31,31,40,00,40,3B,
76449000,00000105,false,Rx,1,8,00,00,00,00,00,00,00,B3,
76451000,00000120,false,Rx,1,8,13,10,1A,10,1A,10,50,3C,
76453000,00000130,false,Rx,1,8,18,10,0F,10,15,10,50,A0,
76453003,00000080,false,Rx,1,8,C7,10,00,50,00,00,80,82,
76455000,00000150,false,Rx,1,8,08,10,1E,10,19,10,50,D3,
76456000,000003C3,false,Rx,0,6,00,0E,FF,FF,FF,E7,00,00,
76457000,00000170,false,Rx,1,8,32,32,32,32,42,00,50,D7,
76459000,00000111,false,Rx,1,8,11,00,00,00,00,00,00,00,
76461001,00000131,false,Rx,1,8,16,10,13,10,13,10,50,ED,
76463000,00000151,false,Rx,1,8,17,10,19,10,13,10,50,57,
76465000,00000112,false,Rx,1,8,11,00,00,00,00,00,00,00,
76466000,000003C3,false,Rx,0,6,00,0F,FF,FF,FF,ED,00,00,
76466001,00000081,false,Rx,1,8,C7,10,00,50,00,00,80,E7,
76467000,00000122,false,Rx,1,8,0F,10,12,10,0F,10,50,12,
76469000,00000132,false,Rx,1,8,0A,10,0A,10,0D,10,50,A2,
76471000,00000142,false,Rx,1,8,10,10,0F,10,0F,10,50,F5,
76473000,00000152,false,Rx,1,8,0C,10,10,10,13,10,50,69,
76475000,00000162,false,Rx,1,8,D1,C0,00,00,00,00,50,64,
76476000,000003C3,false,Rx,0,6,00,00,FF,FF,FF,F7,00,00,
76477000,00000171,false,Rx,1,8,32,32,32,32,3D,00,50,7C,
76479000,00000082,false,Rx,1,8,C7,10,00,50,00,00,80,48,
76479002,00000100,false,Rx,1,8,00,00,00,00,00,00,D0,A7,
76481001,00000113,false,Rx,1,8,11,00,00,00,00,00,00,00,
76483000,00000123,false,Rx,1,8,14,10,13,10,16,10,50,0A,
76485000,00000133,false,Rx,1,8,15,10,EE,0F,16,10,50,3F,
76486000,000003C3,false,Rx,0,6,00,01,FF,FF,FF,F1,00,00,
76487000,00000143,false,Rx,1,8,0D,10,16,10,16,10,50,A7,
76489000,00000153,false,Rx,1,8,1A,10,16,10,13,10,50,07,
76489003,00000437,false,Rx,2,8,01,00,00,00,6C,02,0E,02,
76491000,00000172,false,Rx,1,8,31,32,31,32,3E,00,50,06,
76492001,00000083,false,Rx,1,8,C7,10,00,50,00,00,80,2D,
76493000,00000106,false,Rx,1,8,00,00,00,00,00,00,10,D1,
76495001,00000107,false,Rx,1,8,00,00,00,00,00,00,10,B4,
76496000,000003C3,false,Rx,0,6,00,02,FF,FF,FF,EF,00,00,
76497000,00000105,false,Rx,1,8,00,00,00,00,00,00,10,7E,
76499001,00000173,false,Rx,1,8,32,32,32,32,40,00,50,7B,
76501000,000003D2,false,Rx,0,6,04,0D,00,00,00,69,00,00,
76501001,00000102,false,Rx,1,8,00,00,00,00,00,00,10,58,
76501010,0000041A,false,Rx,2,8,7E,0D,87,13,CB,CE,06,99,
76501017,0000041B,false,Rx,2,8,31,32,00,04,2F,75,06,B5,
76501019,0000041C,false,Rx,2,8,F4,01,00,00,07,18,06,B5,
76501020,0000041D,false,Rx,2,8,45,25,10,27,00,02,06,79,
76501021,0000041E,false,Rx,2,8,00,00,00,00,02,6C,06,B4,
76503001,00000115,false,Rx,1,8,11,00,00,00,00,00,00,00,
76505000,00000103,false,Rx,1,8,00,00,00,00,00,00,10,3D,
76505003,00000084,false,Rx,1,8,C7,10,00,50,00,00,80,0B,
76506000,000003C3,false,Rx,0,6,00,03,FF,FF,FF,EA,00,00,
76507000,00000101,false,Rx,1,8,00,00,00,00,00,00,10,F7,
76509000,00000125,false,Rx,1,8,19,10,1E,10,1A,10,50,0D,
76511000,00000135,false,Rx,1,8,18,10,10,10,16,10,50,52,
76513000,00000145,false,Rx,1,8,1A,10,1B,10,15,10,50,F7,
76515001,00000155,false,Rx,1,8,19,10,18,10,09,10,50,A2,
76516000,000003C3,false,Rx,0,6,00,04,FF,FF,FF,ED,00,00,
76517000,00000165,false,Rx,1,8,1F,C1,00,00,00,00,50,7A,
76518001,00000085,false,Rx,1,8,C7,10,00,50,00,00,80,6E,
76519000,00000175,false,Rx,1,8,31,31,31,31,3C,00,50,53,
76521001,00000116,false,Rx,1,8,11,00,00,00,00,00,00,00,
76523000,00000126,false,Rx,1,8,11,10,17,10,12,10,50,61,
76525001,00000136,false,Rx,1,8,10,10,12,10,0C,10,50,EC,
76526000,000003C3,false,Rx,0,6,00,05,FF,FF,FF,F9,00,00,
76527000,00000156,false,Rx,1,8,0D,10,14,10,16,10,50,81,
76529000,00000176,false,Rx,1,8,32,32,32,32,3D,00,50,5A,
76531000,00000100,false,Rx,1,8,00,00,00,00,00,00,E0,ED,
76531003,00000086,false,Rx,1,8,C7,10,00,50,00,00,80,C1,
76533000,00000117,false,Rx,1,8,11,00,00,00,00,00,00,00,
76535001,00000127,false,Rx,1,8,F8,0F,F8,0F,F4,0F,50,84,
76536000,000003C3,false,Rx,0,6,00,06,FF,FF,FF,E6,00,00,
76537000,00000137,false,Rx,1,8,F5,0F,F5,0F,F4,0F,50,D4,
76539000,00000147,false,Rx,1,8,F6,0F,F2,0F,F7,0F,50,EE,
76541001,00000157,false,Rx,1,8,F7,0F,F5,0F,F6,0F,50,29,
76543000,00000167,false,Rx,1,8,63,BF,00,00,00,00,50,EC,
76544001,00000087,false,Rx,1,8,C7,10,00,50,00,00,80,A4,
76545000,00000177,false,Rx,1,8,31,32,31,31,40,00,50,11,
76546000,000003C3,false,Rx,0,6,00,07,FF,FF,FF,F2,00,00,
76547000,00000110,false,Rx,1,8,11,00,00,00,00,00,00,00,
76549000,00000106,false,Rx,1,8,00,00,00,00,00,00,20,9B,
76551001,00000107,false,Rx,1,8,00,00,00,00,00,00,20,FE,
76553000,00000120,false,Rx,1,8,15,10,1A,10,1A,10,60,A5,
76555000,00000130,false,Rx,1,8,18,10,11,10,15,10,60,12,
76556000,000003C3,false,Rx,0,6,00,08,FF,FF,FF,F3,00,00,
76557000,00000140,false,Rx,1,8,17,10,17,10,18,10,60,F0,
76557003,00000080,false,Rx,1,8,C7,10,00,50,00,00,90,4F,
76559000,00000160,false,Rx,1,8,31,C1,00,00,00,00,60,B2,
76561001,00000170,false,Rx,1,8,32,32,32,32,42,00,60,9D,
76563000,00000111,false,Rx,1,8,11,00,00,00,00,00,00,00,
76565000,00000121,false,Rx,1,8,1A,10,1A,10,17,10,60,19,
76566000,000003C3,false,Rx,0,6,00,09,00,00,00,0D,00,00,
76567000,00000131,false,Rx,1,8,16,10,13,10,13,10,60,A7,
76569000,00000141,false,Rx,1,8,16,10,19,10,15,10,60,5B,
76570000,00000081,false,Rx,1,8,C7,10,00,50,00,00,90,2A,
76571000,00000112,false,Rx,1,8,11,00,00,00,00,00,00,00,
76573000,00000151,false,Rx,1,8,17,10,19,10,13,10,60,1D,
76575000,00000122,false,Rx,1,8,0F,10,12,10,0F,10,60,58,
76576000,000003C3,false,Rx,0,6,00,0A,FF,FF,FF,EF,00,00,
76577000,000001D0,false,Rx,1,8,22,22,22,22,22,22,29,92,
76579001,00000171,false,Rx,1,8,32,32,32,32,3E,00,60,BA,
76581000,00000100,false,Rx,1,8,00,00,00,00,00,00,00,5F,
76583001,00000113,false,Rx,1,8,11,00,00,00,00,00,00,00,
76583002,00000082,false,Rx,1,8,C7,10,00,50,00,00,90,85,
76585001,000001D6,false,Rx,1,8,22,22,22,22,22,22,29,92,
76586000,000003C3,false,Rx,0,6,00,0B,FF,FF,FF,F5,00,00,
76587000,000001D7,false,Rx,1,8,22,22,22,22,22,22,29,92,
76589000,000001D5,false,Rx,1,8,22,22,22,22,22,22,29,92,
76589002,000003D8,false,Rx,2,3,91,02,00,00,00,00,00,00,
76591000,00000172,false,Rx,1,8,31,32,31,32,3E,00,60,4C,
76591003,00000437,false,Rx,2,8,01,00,00,00,6C,02,0F,85,
76593000,000001D3,false,Rx,1,8,22,22,22,22,22,22,29,92,
76595000,00000123,false,Rx,1,8,14,10,14,10,16,10,60,4B,
76596000,000003C3,false,Rx,0,6,00,0C,FF,FF,FF,F1,00,00,
76596001,00000083,false,Rx,1,8,C7,10,00,50,00,00,90,E0,
76597000,00000133,false,Rx,1,8,15,10,EC,0F,16,10,60,A1,
76599000,00000143,false,Rx,1,8,0D,10,16,10,16,10,60,ED,
76601005,0000041A,false,Rx,2,8,7E,0D,87,13,CB,CE,07,1E,
76601013,0000041B,false,Rx,2,8,31,32,00,05,2F,75,07,F8,
76601014,0000041C,false,Rx,2,8,F4,01,00,00,07,18,07,32,
76601016,0000041D,false,Rx,2,8,45,25,10,27,00,02,07,FE,
76601017,0000041E,false,Rx,2,8,00,00,00,00,02,6C,07,33,
76601018,000003D2,false,Rx,0,6,04,0E,00,00,00,69,00,00,
76601019,000001D2,false,Rx,1,8,22,22,22,22,22,22,29,92,
76603000,00000106,false,Rx,1,8,00,00,00,00,00,00,30,56,
76605000,00000153,false,Rx,1,8,1A,10,16,10,13,10,60,4D,
76606000,000003C3,false,Rx,0,6,00,0D,FF,FF,FF,F1,00,00,
76607000,000001D1,false,Rx,1,8,22,22,22,22,22,22,29,92,
76609000,000001C0,false,Rx,1,8,22,22,22,22,25,22,42,22,
76609002,00000084,false,Rx,1,8,C7,10,00,50,00,00,90,C6,
76611000,00000115,false,Rx,1,8,11,00,00,00,00,00,00,00,
76613000,00000102,false,Rx,1,8,00,00,00,00,00,00,30,DF,
76615000,00000103,false,Rx,1,8,00,00,00,00,00,00,30,BA,
76616000,000003C3,false,Rx,0,6,00,0E,FF,FF,FF,F3,00,00,
76617000,00000101,false,Rx,1,8,00,00,00,00,00,00,30,70,
76619000,00000125,false,Rx,1,8,19,10,1E,10,1A,10,60,47,
76621001,00000135,false,Rx,1,8,18,10,10,10,18,10,60,11,
76622000,00000085,false,Rx,1,8,C7,10,00,50,00,00,90,A3,
76623000,00000155,false,Rx,1,8,19,10,18,10,09,10,60,E8,
76625000,000001C7,false,Rx,1,8,22,22,22,22,25,22,42,22,
76626000,000003C3,false,Rx,0,6,00,0F,FF,FF,FF,EF,00,00,
76627000,00000116,false,Rx,1,8,11,00,00,00,00,00,00,00,
76629000,00000126,false,Rx,1,8,11,10,16,10,12,10,60,41,
76631000,00000156,false,Rx,1,8,0D,10,14,10,16,10,60,CB,
76633001,00000176,false,Rx,1,8,32,32,32,32,3D,00,60,10,
76635000,000001C5,false,Rx,1,8,22,22,22,22,25,22,42,22,
76635002,00000086,false,Rx,1,8,C7,10,00,50,00,00,90,0C,
76636000,000003C3,false,Rx,0,6,00,00,FF,FF,FF,F4,00,00,
76637000,000001C3,false,Rx,1,8,22,22,22,22,25,22,42,22,
76639000,00000100,false,Rx,1,8,00,00,00,00,00,00,10,92,
76641000,00000117,false,Rx,1,8,11,00,00,00,00,00,00,00,
76643000,00000137,false,Rx,1,8,F5,0F,F7,0F,F5,0F,60,C5,
76645000,00000157,false,Rx,1,8,F7,0F,F7,0F,F6,0F,60,B7,
76646000,000003C3,false,Rx,0,6,00,01,FF,FF,FF,E7,00,00,
76647000,00000110,false,Rx,1,8,11,00,00,00,00,00,00,00,
76648001,00000087,false,Rx,1,8,C7,10,00,50,00,00,90,69,
76649000,00000120,false,Rx,1,8,15,10,1A,10,1A,10,70,68,
76651000,00000130,false,Rx,1,8,18,10,11,10,15,10,70,DF,
76653000,00000140,false,Rx,1,8,17,10,17,10,18,10,70,3D,
76655000,00000150,false,Rx,1,8,09,10,1E,10,19,10,70,09,
76656000,000003C3,false,Rx,0,6,00,02,FF,FF,FF,EE,00,00,
76657000,00000107,false,Rx,1,8,00,00,00,00,00,00,40,6A,
76659000,00000106,false,Rx,1,8,00,00,00,00,00,00,40,0F,
76661001,00000160,false,Rx,1,8,31,C1,00,00,00,00,70,7F,
76661004,00000080,false,Rx,1,8,C7,10,00,50,00,00,A0,05,
76663000,00000177,false,Rx,1,8,31,32,31,31,40,00,60,5B,
76665000,00000105,false,Rx,1,8,00,00,00,00,00,00,40,A0,
76666000,000003C3,false,Rx,0,6,00,03,00,00,00,01,00,00,
76667000,00000111,false,Rx,1,8,11,00,00,00,00,00,00,00,
76669000,00000103,false,Rx,1,8,00,00,00,00,00,00,40,E3,
76671000,00000121,false,Rx,1,8,18,10,1A,10,16,10,70,E1,
76673001,00000141,false,Rx,1,8,16,10,19,10,16,10,70,1A,
76674001,00000081,false,Rx,1,8,C7,10,00,50,00,00,A0,60,
76675000,00000161,false,Rx,1,8,32,C1,00,00,00,00,70,FD,
76676000,000003C3,false,Rx,0,6,00,04,FF,FF,FF,EE,00,00,
76677000,00000171,false,Rx,1,8,32,32,32,32,3E,00,70,77,
76679000,00000112,false,Rx,1,8,11,00,00,00,00,00,00,00,
76681000,00000132,false,Rx,1,8,0A,10,0A,10,0D,10,70,25,
76683000,00000152,false,Rx,1,8,0C,10,0F,10,13,10,70,7C,
76685000,00000113,false,Rx,1,8,11,00,00,00,00,00,00,00,
76686000,000003C3,false,Rx,0,6,00,05,FF,FF,FF,F8,00,00,
76687000,00000100,false,Rx,1,8,00,00,00,00,00,00,20,D8,
76687004,00000082,false,Rx,1,8,C7,10,00,50,00,00,A0,CF,
76689000,00000172,false,Rx,1,8,31,32,31,32,3D,00,70,0D,
76689003,00000437,false,Rx,2,8,01,00,00,00,6C,02,00,28,
76691000,00000123,false,Rx,1,8,14,10,14,10,16,10,70,86,
76693000,00000133,false,Rx,1,8,15,10,EC,0F,16,10,70,6C,
76695000,00000143,false,Rx,1,8,0F,10,16,10,15,10,70,16,
76696000,000003C3,false,Rx,0,6,00,06,FF,FF,FF,E8,00,00,
76697000,00000153,false,Rx,1,8,1A,10,16,10,13,10,70,80,
76699000,00000163,false,Rx,1,8,BA,C0,00,00,00,00,70,02,
76700000,00000083,false,Rx,1,8,C7,10,00,50,00,00,A0,AA,
76701000,000003D2,false,Rx,0,6,04,0F,00,00,00,69,00,00,
76701001,00000106,false,Rx,1,8,00,00,00,00,00,00,50,C2,
76701010,0000041A,false,Rx,2,8,7E,0D,87,13,CB,CE,08,B3,
76701018,0000041B,false,Rx,2,8,31,32,00,05,2F,75,08,55,
76701019,0000041C,false,Rx,2,8,F4,01,00,00,07,18,08,9F,
76701020,0000041D,false,Rx,2,8,45,25,10,27,00,02,08,53,
76701021,0000041E,false,Rx,2,8,00,00,00,00,02,6C,08,9E,
76703000,00000107,false,Rx,1,8,00,00,00,00,00,00,50,A7,
76705000,00000173,false,Rx,1,8,32,32,32,32,40,00,70,FC,
76706000,000003C3,false,Rx,0,6,00,07,FF,FF,FF,F6,00,00,
76707000,00000105,false,Rx,1,8,00,00,00,00,00,00,50,6D,
76709000,00000115,false,Rx,1,8,11,00,00,00,00,00,00,00,
76711000,00000125,false,Rx,1,8,19,10,1E,10,1A,10,70,8A,
76713000,00000102,false,Rx,1,8,00,00,00,00,00,00,50,4B,
76713003,00000084,false,Rx,1,8,C7,10,00,50,00,00,A0,8C,
76715000,00000135,false,Rx,1,8,18,10,10,10,18,10,70,DC,
76716000,000003C3,false,Rx,0,6,00,08,FF,FF,FF,ED,00,00,
76717000,00000145,false,Rx,1,8,1A,10,1A,10,15,10,70,1A,
76719000,00000103,false,Rx,1,8,00,00,00,00,00,00,50,2E,
76721001,00000155,false,Rx,1,8,19,10,18,10,09,10,70,25,
76723000,00000101,false,Rx,1,8,00,00,00,00,00,00,50,E4,
76725000,00000165,false,Rx,1,8,1F,C1,00,00,00,00,70,FD,
76726000,00000085,false,Rx,1,8,C7,10,00,50,00,00,A0,E9,
76726001,000003C3,false,Rx,0,6,00,09,FF,FF,FF,F4,00,00,
76727000,00000175,false,Rx,1,8,31,31,31,31,3C,00,70,D4,
76729000,00000116,false,Rx,1,8,11,00,00,00,00,00,00,00,
76731000,00000126,false,Rx,1,8,0F,10,16,10,12,10,70,34,
76733000,00000136,false,Rx,1,8,10,10,12,10,0A,10,70,6E,
76735000,00000156,false,Rx,1,8,0E,10,14,10,16,10,70,E1,
76736000,000003C3,false,Rx,0,6,00,0A,FF,FF,FF,EA,00,00,
76737000,00000176,false,Rx,1,8,32,32,32,32,3D,00,70,DD,
76739000,00000117,false,Rx,1,8,11,00,00,00,00,00,00,00,
76739002,00000086,false,Rx,1,8,C7,10,00,50,00,00,A0,46,
76741000,00000100,false,Rx,1,8,00,00,00,00,00,00,30,15,
76743000,00000127,false,Rx,1,8,F8,0F,F9,0F,F4,0F,70,69,
76745000,00000137,false,Rx,1,8,F5,0F,F7,0F,F4,0F,70,87,
76746000,000003C3,false,Rx,0,6,00,0B,FF,FF,FF,F5,00,00,
76747000,00000110,false,Rx,1,8,11,00,00,00,00,00,00,00,
76749000,00000147,false,Rx,1,8,F6,0F,F2,0F,F7,0F,70,69,
76751000,00000157,false,Rx,1,8,F7,0F,F7,0F,F6,0F,70,7A,
76752001,00000087,false,Rx,1,8,C7,10,00,50,00,00,A0,23,
76753000,00000167,false,Rx,1,8,77,BF,00,00,00,00,70,BB,
76755000,00000120,false,Rx,1,8,15,10,18,10,1A,10,80,C3,
76756000,000003C3,false,Rx,0,6,00,0C,FF,FF,FF,FD,00,00,
76757000,00000130,false,Rx,1,8,18,10,11,10,15,10,80,A0,
76759000,00000177,false,Rx,1,8,31,32,31,31,40,00,70,96,
76761000,00000140,false,Rx,1,8,17,10,17,10,18,10,80,42,
76763001,00000150,false,Rx,1,8,08,10,1E,10,1B,10,80,28,
76765000,00000160,false,Rx,1,8,31,C1,00,00,00,00,80,00,
76765003,00000080,false,Rx,1,8,C7,10,00,50,00,00,B0,C8,
76766000,000003C3,false,Rx,0,6,00,0D,00,00,00,07,00,00,
76767000,00000170,false,Rx,1,8,32,32,32,32,41,00,80,A3,
76769000,00000106,false,Rx,1,8,00,00,00,00,00,00,60,88,
76771001,00000111,false,Rx,1,8,11,00,00,00,00,00,00,00,
76773000,00000131,false,Rx,1,8,16,10,13,10,13,10,80,15,
76775000,00000151,false,Rx,1,8,17,10,19,10,13,10,80,AF,
76776000,000003C3,false,Rx,0,6,00,0E,FF,FF,FF,EE,00,00,
76777000,00000101,false,Rx,1,8,00,00,00,00,00,00,60,AE,
76778000,00000081,false,Rx,1,8,C7,10,00,50,00,00,B0,AD,
76779000,00000112,false,Rx,1,8,11,00,00,00,00,00,00,00,
76781001,000001D0,false,Rx,1,8,22,22,22,22,22,22,29,92,
76783000,00000171,false,Rx,1,8,32,32,32,32,3D,00,80,84,
76785000,00000122,false,Rx,1,8,0F,10,12,10,0F,10,80,EA,
76786000,000003C3,false,Rx,0,6,00,0F,FF,FF,FF,F4,00,00,
76787000,00000113,false,Rx,1,8,11,00,00,00,00,00,00,00,
76789000,00000132,false,Rx,1,8,0A,10,0A,10,0D,10,80,5A,
76789003,00000437,false,Rx,2,8,01,00,00,00,6C,02,01,AF,
76791000,00000142,false,Rx,1,8,10,10,0F,10,0F,10,80,0D,
76791003,00000082,false,Rx,1,8,C7,10,00,50,00,00,B0,02,
76793000,00000152,false,Rx,1,8,0C,10,10,10,14,10,80,1B,
76795000,00000162,false,Rx,1,8,D1,C0,00,00,00,00,80,9C,
76796000,000003C3,false,Rx,0,6,00,00,FF,FF,FF,F4,00,00,
76797000,00000172,false,Rx,1,8,31,32,31,32,3E,00,80,FE,
76799000,00000100,false,Rx,1,8,00,00,00,00,00,00,40,4C,
76801000,000001D6,false,Rx,1,8,22,22,22,22,22,22,29,92,
76801007,0000041A,false,Rx,2,8,7E,0D,87,13,CB,CE,09,34,
76801015,0000041B,false,Rx,2,8,31,32,00,05,2F,75,09,D2,
76801016,0000041C,false,Rx,2,8,F4,01,00,00,07,18,09,18,
76801017,0000041D,false,Rx,2,8,45,25,10,27,00,02,09,D4,
76801018,0000041E,false,Rx,2,8,00,00,00,00,02,6C,09,19,
76801019,000003D2,false,Rx,0,6,04,00,00,00,00,69,00,00,
76803000,000001D7,false,Rx,1,8,22,22,22,22,22,22,29,92,
76804001,00000083,false,Rx,1,8,C7,10,00,50,00,00,B0,67,
76805000,000001D5,false,Rx,1,8,22,22,22,22,22,22,29,92,
76806000,000003C3,false,Rx,0,6,00,01,FF,FF,FF,FF,00,00,
76807000,00000123,false,Rx,1,8,14,10,14,10,16,10,80,F9,
76809000,00000133,false,Rx,1,8,15,10,EC,0F,16,10,80,13,
76811000,00000143,false,Rx,1,8,0F,10,16,10,16,10,80,E5,
76813000,00000153,false,Rx,1,8,1A,10,16,10,13,10,80,FF,
76815000,00000173,false,Rx,1,8,32,32,32,32,3F,00,80,4D,
76816000,000003C3,false,Rx,0,6,00,02,00,00,00,08,00,00,
76817000,000001D2,false,Rx,1,8,22,22,22,22,22,22,29,92,
76817002,00000084,false,Rx,1,8,C7,10,00,50,00,00,B0,41,
76819000,00000106,false,Rx,1,8,00,00,00,00,00,00,70,45,
76821001,000001D3,false,Rx,1,8,22,22,22,22,22,22,29,92,
76823000,000001C0,false,Rx,1,8,22,22,22,22,25,22,42,22,
76825000,00000125,false,Rx,1,8,19,10,1E,10,1B,10,80,7A,
76826000,000003C3,false,Rx,0,6,00,03,FF,FF,FF,FF,00,00,
76827000,00000135,false,Rx,1,8,18,10,10,10,16,10,80,AA,
76829000,00000155,false,Rx,1,8,19,10,18,10,09,10,80,5A,
76830000,00000085,false,Rx,1,8,C7,10,00,50,00,00,B0,24,
76831001,00000175,false,Rx,1,8,31,31,31,31,3C,00,80,AB,
76833000,00000103,false,Rx,1,8,00,00,00,00,00,00,70,A9,
76835000,00000116,false,Rx,1,8,11,00,00,00,00,00,00,00,
76836000,000003C3,false,Rx,0,6,00,04,FF,FF,FF,F9,00,00,
76837000,00000136,false,Rx,1,8,10,10,12,10,0C,10,80,14,
76839001,000001C7,false,Rx,1,8,22,22,22,22,25,22,42,22,
76841001,000001C6,false,Rx,1,8,22,22,22,22,25,22,42,22,
76843000,000001C5,false,Rx,1,8,22,22,22,22,25,22,42,22,
76843002,00000086,false,Rx,1,8,C7,10,00,50,00,00,B0,8B,
76845000,00000117,false,Rx,1,8,11,00,00,00,00,00,00,00,
76846000,000003C3,false,Rx,0,6,00,05,FF,FF,FF,E7,00,00,
76847000,000001C2,false,Rx,1,8,22,22,22,22,25,22,42,22,
76849000,000001C3,false,Rx,1,8,22,22,22,22,25,22,42,22,
76851000,00000100,false,Rx,1,8,00,00,00,00,00,00,50,81,
76853000,000001C1,false,Rx,1,8,22,22,22,22,25,22,42,22,
76855000,00000137,false,Rx,1,8,F5,0F,F7,0F,F4,0F,80,F8,
76856000,000003C3,false,Rx,0,6,00,06,FF,FF,FF,FD,00,00,
76856001,00000087,false,Rx,1,8,C7,10,00,50,00,00,B0,EE,
76857000,00000157,false,Rx,1,8,F7,0F,F7,0F,F6,0F,80,05,
76859000,00000176,false,Rx,1,8,32,32,32,32,3D,00,80,A2,
76861001,00000110,false,Rx,1,8,11,00,00,00,00,00,00,00,
76863000,00000120,false,Rx,1,8,15,10,1A,10,1A,10,90,DA,
76865000,00000140,false,Rx,1,8,17,10,17,10,18,10,90,8F,
76866000,000003C3,false,Rx,0,6,00,07,FF,FF,FF,FD,00,00,
76867000,00000160,false,Rx,1,8,31,C1,00,00,00,00,90,CD,
76869000,00000080,false,Rx,1,8,C7,10,00,50,00,00,C0,91,
76869002,00000170,false,Rx,1,8,32,32,32,32,42,00,90,E2,
76871000,00000111,false,Rx,1,8,11,00,00,00,00,00,00,00,
76873000,00000106,false,Rx,1,8,00,00,00,00,00,00,80,3A,
76875000,00000107,false,Rx,1,8,00,00,00,00,00,00,80,5F,
76876000,000003C3,false,Rx,0,6,00,08,FF,FF,FF,F8,00,00,
76877000,00000105,false,Rx,1,8,00,00,00,00,00,00,80,95,
76879000,00000102,false,Rx,1,8,00,00,00,00,00,00,80,B3,
76881001,00000103,false,Rx,1,8,00,00,00,00,00,00,80,D6,
76882001,00000081,false,Rx,1,8,C7,10,00,50,00,00,C0,F4,
76883000,00000101,false,Rx,1,8,00,00,00,00,00,00,80,1C,
76885000,00000121,false,Rx,1,8,18,10,1C,10,16,10,90,32,
76886000,000003C3,false,Rx,0,6,00,09,FF,FF,FF,F9,00,00,
76887000,00000141,false,Rx,1,8,16,10,19,10,15,10,90,24,
76889000,00000161,false,Rx,1,8,32,C1,00,00,00,00,90,4F,
76889003,00000437,false,Rx,2,8,01,00,00,00,6C,02,02,26,
76891000,00000171,false,Rx,1,8,32,32,32,32,3E,00,90,C5,
76893000,00000122,false,Rx,1,8,0F,10,12,10,0D,10,90,24,
76895000,00000132,false,Rx,1,8,0A,10,0A,10,0D,10,90,97,
76895003,00000082,false,Rx,1,8,C7,10,00,50,00,00,C0,5B,
76896000,000003C3,false,Rx,0,6,00,0A,FF,FF,FF,E8,00,00,
76897001,00000113,false,Rx,1,8,11,00,00,00,00,00,00,00,
76899000,00000142,false,Rx,1,8,10,10,0F,10,0F,10,90,C0,
76901000,000003D2,false,Rx,0,6,04,01,00,00,00,69,00,00,
76901001,00000152,false,Rx,1,8,0C,10,10,10,13,10,90,5C,
76901010,0000041A,false,Rx,2,8,7E,0D,87,13,CB,CE,0A,BD,
76901017,0000041B,false,Rx,2,8,31,32,00,05,2F,75,0A,5B,
76901019,0000041C,false,Rx,2,8,F4,01,00,00,07,18,0A,91,
76901020,0000041D,false,Rx,2,8,45,25,10,27,00,02,0A,5D,
76901021,0000041E,false,Rx,2,8,00,00,00,00,02,6C,0A,90,
76903000,00000162,false,Rx,1,8,BE,C0,00,00,00,00,90,BC,
76905000,00000172,false,Rx,1,8,31,32,31,32,3E,00,90,33,
76906000,000003C3,false,Rx,0,6,00,0B,FF,FF,FF,F4,00,00,
76907000,00000100,false,Rx,1,8,00,00,00,00,00,00,60,CB,
76908001,00000083,false,Rx,1,8,C7,10,00,50,00,00,C0,3E,
76909000,00000123,false,Rx,1,8,14,10,14,10,16,10,90,34,
76911000,00000133,false,Rx,1,8,15,10,EC,0F,16,10,90,DE,
76913000,00000143,false,Rx,1,8,0D,10,16,10,15,10,90,1E,
76915000,00000153,false,Rx,1,8,1A,10,16,10,13,10,90,32,
76916000,000003C3,false,Rx,0,6,00,0C,FF,FF,FF,F6,00,00,
76917000,00000163,false,Rx,1,8,BA,C0,00,00,00,00,90,B0,
76919000,00000173,false,Rx,1,8,32,32,32,32,40,00,90,4E,
76921001,00000106,false,Rx,1,8,00,00,00,00,00,00,90,F7,
76921004,00000084,false,Rx,1,8,C7,10,00,50,00,00,C0,18,
76923000,00000107,false,Rx,1,8,00,00,00,00,00,00,90,92,
76925000,00000115,false,Rx,1,8,11,00,00,00,00,00,00,00,
76926000,000003C3,false,Rx,0,6,00,0D,FF,FF,FF,EA,00,00,
76927000,00000125,false,Rx,1,8,19,10,1C,10,1A,10,90,EC,
76929000,00000135,false,Rx,1,8,18,10,10,10,16,10,90,67,
76931000,00000145,false,Rx,1,8,1A,10,1A,10,16,10,90,24,
76933000,00000165,false,Rx,1,8,1F,C1,00,00,00,00,90,4F,
76934000,00000085,false,Rx,1,8,C7,10,00,50,00,00,C0,7D,
76935000,00000175,false,Rx,1,8,31,31,31,31,3C,00,90,66,
76936000,000003C3,false,Rx,0,6,00,0E,FF,FF,FF,EF,00,00,
76937000,00000102,false,Rx,1,8,00,00,00,00,00,00,90,7E,
76939000,00000103,false,Rx,1,8,00,00,00,00,00,00,90,1B,
76941001,00000136,false,Rx,1,8,10,10,12,10,0C,10,90,D9,
76943000,00000156,false,Rx,1,8,0E,10,14,10,14,10,90,50,
76945001,00000117,false,Rx,1,8,11,00,00,00,00,00,00,00,
76946000,000003C3,false,Rx,0,6,00,0F,FF,FF,FF,FA,00,00,
76947000,00000127,false,Rx,1,8,F8,0F,F8,0F,F4,0F,90,B1,
76947004,00000086,false,Rx,1,8,C7,10,00,50,00,00,C0,D2,
76949001,00000137,false,Rx,1,8,F5,0F,F5,0F,F5,0F,90,6E,
76951000,00000147,false,Rx,1,8,F6,0F,F2,0F,F7,0F,90,DB,
76953000,00000157,false,Rx,1,8,F7,0F,F7,0F,F6,0F,90,C8,
76955000,00000167,false,Rx,1,8,77,BF,00,00,00,00,90,09,
76956000,000003C3,false,Rx,0,6,00,00,FF,FF,FF,F1,00,00,
76957000,00000177,false,Rx,1,8,31,32,31,31,40,00,90,24,
76959000,00000100,false,Rx,1,8,00,00,00,00,00,00,70,06,
76960000,00000087,false,Rx,1,8,C7,10,00,50,00,00,C0,B7,
76961001,00000176,false,Rx,1,8,32,32,32,32,3D,00,90,6F,
76963000,00000110,false,Rx,1,8,11,00,00,00,00,00,00,00,
76965000,00000120,false,Rx,1,8,13,10,1A,10,1A,10,A0,43,
76966000,000003C3,false,Rx,0,6,00,01,FF,FF,FF,F7,00,00,
76967000,00000130,false,Rx,1,8,18,10,11,10,15,10,A0,27,
76969000,00000140,false,Rx,1,8,17,10,17,10,18,10,A0,C5,
76971000,00000160,false,Rx,1,8,31,C1,00,00,00,00,A0,87,
76973000,00000111,false,Rx,1,8,11,00,00,00,00,00,00,00,
76973002,00000080,false,Rx,1,8,C7,10,00,50,00,00,D0,5C,
76975000,00000106,false,Rx,1,8,00,00,00,00,00,00,A0,BD,
76976000,000003C3,false,Rx,0,6,00,02,FF,FF,FF,EB,00,00,
76977000,00000107,false,Rx,1,8,00,00,00,00,00,00,A0,D8,
76979000,00000121,false,Rx,1,8,18,10,1A,10,16,10,A0,19,
76981001,00000131,false,Rx,1,8,16,10,15,10,13,10,A0,F3,
76983001,00000141,false,Rx,1,8,17,10,19,10,15,10,A0,33,
76985000,00000105,false,Rx,1,8,00,00,00,00,00,00,A0,12,
76986000,00000081,false,Rx,1,8,C7,10,00,50,00,00,D0,39,
76986001,000003C3,false,Rx,0,6,00,03,FF,FF,FF,F1,00,00,
76987000,00000161,false,Rx,1,8,32,C1,00,00,00,00,A0,05,
76989000,00000171,false,Rx,1,8,32,32,32,32,3E,00,A0,8F,
76989003,00000437,false,Rx,2,8,01,00,00,00,6C,02,03,A1,
76991000,00000112,false,Rx,1,8,11,00,00,00,00,00,00,00,
76993000,00000101,false,Rx,1,8,00,00,00,00,00,00,A0,9B,
76995000,00000122,false,Rx,1,8,0F,10,14,10,0F,10,A0,0C,
76996000,000003C3,false,Rx,0,6,00,04,FF,FF,FF,FF,00,00,
76997000,00000132,false,Rx,1,8,0A,10,0A,10,0D,10,A0,DD,
76999000,00000142,false,Rx,1,8,10,10,0F,10,0F,10,A0,8A,
76999004,00000082,false,Rx,1,8,C7,10,00,50,00,00,D0,96,
77001000,000003D2,false,Rx,0,6,04,02,00,00,00,69,00,00,
77001001,000001D0,false,Rx,1,8,22,22,22,22,22,22,29,92,
77001008,0000041A,false,Rx,2,8,7E,0D,87,13,CB,CE,0B,3A,
77001016,0000041B,false,Rx,2,8,31,32,00,05,2F,75,0B,DC,
77001017,0000041C,false,Rx,2,8,F4,01,00,00,07,18,0B,16,
77001018,0000041D,false,Rx,2,8,45,25,10,27,00,02,0B,DA,
77001020,0000041E,false,Rx,2,8,00,00,00,00,02,6C,0B,17,
77003000,00000113,false,Rx,1,8,11,00,00,00,00,00,00,00,
77005000,00000152,false,Rx,1,8,0B,10,0F,10,14,10,A0,80,
77006000,000003C3,false,Rx,0,6,00,05,FF,FF,FF,ED,00,00,
77007000,00000172,false,Rx,1,8,31,32,31,32,3E,00,A0,79,
77009000,00000123,false,Rx,1,8,14,10,14,10,16,10,A0,7E,
77011000,00000133,false,Rx,1,8,15,10,EC,0F,16,10,A0,94,
77012001,00000083,false,Rx,1,8,C7,10,00,50,00,00,D0,F3,
77013000,00000100,false,Rx,1,8,00,00,00,00,00,00,80,79,
77015000,00000143,false,Rx,1,8,0F,10,16,10,16,10,A0,62,
77016000,000003C3,false,Rx,0,6,00,06,FF,FF,FF,F5,00,00,
77017000,00000153,false,Rx,1,8,1A,10,16,10,13,10,A0,78,
77019000,00000163,false,Rx,1,8,BA,C0,00,00,00,00,A0,FA,
77021001,000001D7,false,Rx,1,8,22,22,22,22,22,22,29,92,
77023000,000001D5,false,Rx,1,8,22,22,22,22,22,22,29,92,
77025000,00000115,false,Rx,1,8,11,00,00,00,00,00,00,00,
77025002,00000084,false,Rx,1,8,C7,10,00,50,00,00,D0,D5,
77026000,000003C3,false,Rx,0,6,00,07,FF,FF,FF,F5,00,00,
77027000,00000125,false,Rx,1,8,19,10,1E,10,1A,10,A0,72,
77029001,000001D2,false,Rx,1,8,22,22,22,22,22,22,29,92,
77031000,00000106,false,Rx,1,8,00,00,00,00,00,00,B0,70,
77033000,00000135,false,Rx,1,8,18,10,10,10,18,10,A0,24,
77035000,000001D3,false,Rx,1,8,22,22,22,22,22,22,29,92,
77036000,000003C3,false,Rx,0,6,00,08,FF,FF,FF,ED,00,00,
77037000,000001C0,false,Rx,1,8,22,22,22,22,25,22,42,22,
77038000,00000085,false,Rx,1,8,C7,10,00,50,00,00,D0,B0,
77039000,00000105,false,Rx,1,8,00,00,00,00,00,00,B0,DF,
77041000,00000116,false,Rx,1,8,11,00,00,00,00,00,00,00,
77043000,00000102,false,Rx,1,8,00,00,00,00,00,00,B0,F9,
77045000,00000136,false,Rx,1,8,10,10,12,10,0C,10,A0,93,
77046000,000003C3,false,Rx,0,6,00,09,FF,FF,FF,F2,00,00,
77047000,00000103,false,Rx,1,8,00,00,00,00,00,00,B0,9C,
77049000,000001C7,false,Rx,1,8,22,22,22,22,25,22,42,22,
77051000,00000117,false,Rx,1,8,11,00,00,00,00,00,00,00,
77051002,00000086,false,Rx,1,8,C7,10,00,50,00,00,D0,1F,
77053000,00000127,false,Rx,1,8,F8,0F,F8,0F,F4,0F,A0,FB,
77055000,000001C6,false,Rx,1,8,22,22,22,22,25,22,42,22,
77056000,000003C3,false,Rx,0,6,00,0A,FF,FF,FF,F1,00,00,
77057000,00000137,false,Rx,1,8,F5,0F,F7,0F,F4,0F,A0,7F,
77059000,00000147,false,Rx,1,8,F6,0F,F2,0F,F7,0F,A0,91,
77061001,00000157,false,Rx,1,8,F7,0F,F7,0F,F6,0F,A0,82,
77063000,000001C5,false,Rx,1,8,22,22,22,22,25,22,42,22,
77064000,00000087,false,Rx,1,8,C7,10,00,50,00,00,D0,7A,
77065000,00000176,false,Rx,1,8,32,32,32,32,3D,00,A0,25,
77066000,000003C3,false,Rx,0,6,00,0B,FF,FF,FF,F2,00,00,
77067000,000001C3,false,Rx,1,8,22,22,22,22,25,22,42,22,
77069000,00000110,false,Rx,1,8,11,00,00,00,00,00,00,00,
77071000,00000120,false,Rx,1,8,15,10,1A,10,1A,10,B0,5D,
77073000,00000140,false,Rx,1,8,17,10,17,10,18,10,B0,08,
77075000,00000160,false,Rx,1,8,31,C1,00,00,00,00,B0,4A,
77076000,000003C3,false,Rx,0,6,00,0C,FF,FF,FF,F5,00,00,
77077001,00000111,false,Rx,1,8,11,00,00,00,00,00,00,00,
77077002,00000080,false,Rx,1,8,C7,10,00,50,00,00,E0,16,
77079000,00000121,false,Rx,1,8,18,10,1A,10,16,10,B0,D4,
77081000,00000131,false,Rx,1,8,16,10,13,10,13,10,B0,5F,
77083000,00000141,false,Rx,1,8,17,10,19,10,16,10,B0,72,
77085000,00000151,false,Rx,1,8,17,10,19,10,13,10,B0,E5,
77086000,000003C3,false,Rx,0,6,00,0D,FF,FF,FF,ED,00,00,
77087000,00000161,false,Rx,1,8,32,C1,00,00,00,00,B0,C8,
77089000,00000106,false,Rx,1,8,00,00,00,00,00,00,C0,29,
77089003,000003D8,false,Rx,2,3,91,02,00,00,00,00,00,00,
77090000,00000081,false,Rx,1,8,C7,10,00,50,00,00,E0,73,
77091000,00000105,false,Rx,1,8,00,00,00,00,00,00,C0,86,
77091003,00000437,false,Rx,2,8,01,00,00,00,6C,02,04,34,
77093000,00000170,false,Rx,1,8,32,32,31,32,41,00,B0,57,
77095000,00000112,false,Rx,1,8,11,00,00,00,00,00,00,00,
77096000,000003C3,false,Rx,0,6,00,0E,FF,FF,FF,F2,00,00,
77097000,00000103,false,Rx,1,8,00,00,00,00,00,00,C0,C5,
77099000,00000101,false,Rx,1,8,00,00,00,00,00,00,C0,0F,
77101005,0000041A,false,Rx,2,8,7E,0D,87,13,CB,CE,0C,AF,
77101013,0000041B,false,Rx,2,8,31,32,00,05,2F,75,0C,49,
77101014,0000041C,false,Rx,2,8,F4,01,00,00,07,18,0C,83,
77101015,0000041D,false,Rx,2,8,45,25,10,27,00,02,0C,4F,
77101016,0000041E,false,Rx,2,8,00,00,00,00,02,6C,0C,82,
77101018,000003D2,false,Rx,0,6,04,03,00,00,00,69,00,00,
77101019,00000122,false,Rx,1,8,0F,10,12,10,0D,10,B0,A3,
77103000,00000171,false,Rx,1,8,32,32,32,32,3D,00,B0,CE,
77103003,00000082,false,Rx,1,8,C7,10,00,50,00,00,E0,DC,
77105000,00000132,false,Rx,1,8,0A,10,0A,10,0F,10,B0,13,
77106000,000003C3,false,Rx,0,6,00,0F,FF,FF,FF,EC,00,00,
77107000,00000152,false,Rx,1,8,0C,10,10,10,14,10,B0,51,
77109000,00000113,false,Rx,1,8,11,00,00,00,00,00,00,00,
77111000,00000123,false,Rx,1,8,14,10,14,10,16,10,B0,B3,
77113000,00000133,false,Rx,1,8,15,10,EE,0F,18,10,B0,84,
77115000,00000143,false,Rx,1,8,0F,10,16,10,15,10,B0,23,
77116000,000003C3,false,Rx,0,6,00,00,FF,FF,FF,EE,00,00,
77116002,00000083,false,Rx,1,8,C7,10,00,50,00,00,E0,B9,
77117000,00000153,false,Rx,1,8,1A,10,16,10,13,10,B0,B5,
77119000,00000163,false,Rx,1,8,BA,C0,00,00,00,00,B0,37,
77121001,00000100,false,Rx,1,8,00,00,00,00,00,00,A0,FE,
77123000,00000173,false,Rx,1,8,32,32,32,32,40,00,B0,C9,
77125001,00000115,false,Rx,1,8,11,00,00,00,00,00,00,00,
77126000,000003C3,false,Rx,0,6,00,01,FF,FF,FF,F4,00,00,
77127000,00000125,false,Rx,1,8,19,10,1E,10,1A,10,B0,BF,
77129000,00000135,false,Rx,1,8,18,10,12,10,16,10,B0,34,
77129003,00000084,false,Rx,1,8,C7,10,00,50,00,00,E0,9F,
77131000,00000145,false,Rx,1,8,1A,10,1A,10,15,10,B0,2F,
77133000,00000155,false,Rx,1,8,19,10,18,10,09,10,B0,10,
77135001,00000165,false,Rx,1,8,1F,C1,00,00,00,00,B0,C8,
77136000,000003C3,false,Rx,0,6,00,02,FF,FF,FF,F9,00,00,
77137000,00000106,false,Rx,1,8,00,00,00,00,00,00,D0,E4,
77139000,00000107,false,Rx,1,8,00,00,00,00,00,00,D0,81,
77141001,00000175,false,Rx,1,8,31,31,31,31,3C,00,B0,E1,
77142001,00000085,false,Rx,1,8,C7,10,00,50,00,00,E0,FA,
77143000,00000116,false,Rx,1,8,11,00,00,00,00,00,00,00,
77145000,00000126,false,Rx,1,8,11,10,16,10,10,10,B0,BA,
77146000,000003C3,false,Rx,0,6,00,03,FF,FF,FF,E6,00,00,
77147000,00000136,false,Rx,1,8,10,10,12,10,0C,10,B0,5E,
77149000,00000105,false,Rx,1,8,00,00,00,00,00,00,D0,4B,
77151000,00000102,false,Rx,1,8,00,00,00,00,00,00,D0,6D,
77153000,00000103,false,Rx,1,8,00,00,00,00,00,00,D0,08,
77155000,00000117,false,Rx,1,8,11,00,00,00,00,00,00,00,
77155002,00000086,false,Rx,1,8,C7,10,00,50,00,00,E0,55,
77156000,000003C3,false,Rx,0,6,00,04,FF,FF,FF,FE,00,00,
77157000,00000127,false,Rx,1,8,F8,0F,F9,0F,F4,0F,B0,5C,
77159000,00000137,false,Rx,1,8,F5,0F,F7,0F,F4,0F,B0,B2,
77161000,00000147,false,Rx,1,8,F6,0F,F2,0F,F7,0F,B0,5C,
77163000,00000176,false,Rx,1,8,32,32,32,32,3D,00,B0,E8,
77165000,00000157,false,Rx,1,8,F7,0F,F7,0F,F6,0F,B0,4F,
77166000,000003C3,false,Rx,0,6,00,05,FF,FF,FF,FD,00,00,
77167000,00000167,false,Rx,1,8,77,BF,00,00,00,00,B0,8E,
77168000,00000087,false,Rx,1,8,C7,10,00,50,00,00,E0,30,
77169000,00000177,false,Rx,1,8,31,32,31,31,40,00,B0,A3,
77171000,00000110,false,Rx,1,8,11,00,00,00,00,00,00,00,
77173000,00000120,false,Rx,1,8,15,10,1A,10,1A,10,C0,04,
77175001,00000130,false,Rx,1,8,18,10,11,10,15,10,C0,B3,
77176000,000003C3,false,Rx,0,6,00,06,FF,FF,FF,E9,00,00,
77177000,00000140,false,Rx,1,8,17,10,17,10,18,10,C0,51,
77179000,00000160,false,Rx,1,8,31,C1,00,00,00,00,C0,13,
77181001,00000111,false,Rx,1,8,11,00,00,00,00,00,00,00,
77181003,00000080,false,Rx,1,8,C7,10,00,50,00,00,F0,DB,
77183001,00000106,false,Rx,1,8,00,00,00,00,00,00,E0,AE,
77185000,00000170,false,Rx,1,8,32,32,32,32,42,00,C0,3C,
77186000,000003C3,false,Rx,0,6,00,07,00,00,00,01,00,00,
77187000,00000107,false,Rx,1,8,00,00,00,00,00,00,E0,CB,
77189000,00000121,false,Rx,1,8,1A,10,1A,10,16,10,C0,37,
77189002,00000437,false,Rx,2,8,01,00,00,00,6C,02,05,B3,
77191000,00000131,false,Rx,1,8,16,10,13,10,13,10,C0,06,
77193001,00000141,false,Rx,1,8,16,10,19,10,16,10,C0,76,
77194001,00000081,false,Rx,1,8,C7,10,00,50,00,00,00,C1,
77195000,00000112,false,Rx,1,8,11,00,00,00,00,00,00,00,
77196000,000003C3,false,Rx,0,6,00,08,FF,FF,FF,DE,00,00,
77197000,00000105,false,Rx,1,8,00,00,00,00,00,00,E0,01,
77199000,00000151,false,Rx,1,8,17,10,1A,10,13,10,C0,02,
77201000,000003D2,false,Rx,0,6,04,04,00,00,00,69,00,00,
77201001,00000161,false,Rx,1,8,32,C1,00,00,00,00,C0,91,
77201009,0000041A,false,Rx,2,8,7E,0D,87,13,CB,CE,0D,28,
77201017,0000041B,false,Rx,2,8,31,32,00,04,2E,75,0D,B3,
77201018,0000041C,false,Rx,2,8,F4,01,00,00,07,18,0D,04,
77201019,0000041D,false,Rx,2,8,45,25,10,27,00,02,0D,C8,
77201020,0000041E,false,Rx,2,8,00,00,00,00,02,6C,0D,05,
77203000,00000171,false,Rx,1,8,32,32,32,32,3E,00,C0,1B,
77205000,00000122,false,Rx,1,8,0F,10,12,10,0F,10,C0,F9,
77206000,000003C3,false,Rx,0,6,00,09,FF,FF,FF,E6,00,00,
77207001,00000132,false,Rx,1,8,0A,10,0A,10,0F,10,C0,4A,
77207004,00000082,false,Rx,1,8,C7,10,00,50,00,00,00,6E,
77209000,00000142,false,Rx,1,8,10,10,0F,10,0F,10,C0,1E,
77211000,00000101,false,Rx,1,8,00,00,00,00,00,00,E0,88,
77213000,00000113,false,Rx,1,8,11,00,00,00,00,00,00,00,
77215000,000001D0,false,Rx,1,8,22,22,22,22,22,22,29,92,
77216000,000003C3,false,Rx,0,6,00,0A,FF,FF,FF,ED,00,00,
77217000,00000123,false,Rx,1,8,14,10,14,10,16,10,C0,EA,
77219000,00000133,false,Rx,1,8,15,10,EC,0F,16,10,C0,00,
77220001,00000083,false,Rx,1,8,C7,10,00,50,00,00,00,0B,
77221001,00000143,false,Rx,1,8,0D,10,16,10,16,10,C0,4C,
77223000,00000153,false,Rx,1,8,1A,10,16,10,13,10,C0,EC,
77225000,00000163,false,Rx,1,8,BA,C0,00,00,00,00,C0,6E,
77226000,000003C3,false,Rx,0,6,00,0B,FF,FF,FF,F1,00,00,
77227000,00000173,false,Rx,1,8,32,32,32,32,3F,00,C0,5E,
77229000,00000100,false,Rx,1,8,00,00,00,00,00,00,C0,6A,
77231000,000001D6,false,Rx,1,8,22,22,22,22,22,22,29,92,
77233000,000001D7,false,Rx,1,8,22,22,22,22,22,22,29,92,
77233002,00000084,false,Rx,1,8,C7,10,00,50,00,00,00,2D,
77235000,000001D5,false,Rx,1,8,22,22,22,22,22,22,29,92,
77236000,000003C3,false,Rx,0,6,00,0C,FF,FF,FF,D8,00,00,
77237000,00000115,false,Rx,1,8,11,00,00,00,00,00,00,00,
77239000,00000125,false,Rx,1,8,19,10,1E,10,1A,10,C0,E6,
77241001,00000135,false,Rx,1,8,18,10,10,10,18,10,C0,B0,
77243000,00000155,false,Rx,1,8,19,10,18,10,09,10,C0,49,
77245000,000001D2,false,Rx,1,8,22,22,22,22,22,22,29,92,
77246000,000003C3,false,Rx,0,6,00,0D,FF,FF,FF,F7,00,00,
77246001,00000085,false,Rx,1,8,C7,10,00,50,00,00,00,48,
77247000,00000107,false,Rx,1,8,00,00,00,00,00,00,00,79,
77249000,000001D1,false,Rx,1,8,22,22,22,22,22,22,29,92,
77251000,000001C0,false,Rx,1,8,22,22,22,22,25,22,42,22,
77253000,00000136,false,Rx,1,8,10,10,12,10,0C,10,C0,07,
77255000,00000156,false,Rx,1,8,0D,10,14,10,16,10,C0,6A,
77256000,000003C3,false,Rx,0,6,00,0E,FF,FF,FF,EB,00,00,
77257000,00000102,false,Rx,1,8,00,00,00,00,00,00,00,95,
77259000,00000103,false,Rx,1,8,00,00,00,00,00,00,00,F0,
77259003,00000086,false,Rx,1,8,C7,10,00,50,00,00,00,E7,
77261001,00000101,false,Rx,1,8,00,00,00,00,00,00,00,3A,
77263000,00000117,false,Rx,1,8,11,00,00,00,00,00,00,00,
77265000,00000127,false,Rx,1,8,F8,0F,F9,0F,F4,0F,C0,05,
77266000,000003C3,false,Rx,0,6,00,0F,FF,FF,FF,E1,00,00,
77267000,00000147,false,Rx,1,8,F6,0F,F2,0F,F7,0F,C0,05,
77269000,00000167,false,Rx,1,8,77,BF,00,00,00,00,C0,D7,
77271000,00000176,false,Rx,1,8,32,32,32,32,3D,00,C0,B1,
77272000,00000087,false,Rx,1,8,C7,10,00,50,00,00,00,82,
77273000,000001C6,false,Rx,1,8,22,22,22,22,25,22,42,22,
77275000,000001C5,false,Rx,1,8,22,22,22,22,25,22,42,22,
77276000,000003C3,false,Rx,0,6,00,00,FF,FF,FF,DF,00,00,
77277000,00000110,false,Rx,1,8,11,00,00,00,00,00,00,00,
77279001,00000130,false,Rx,1,8,18,10,11,10,15,10,D0,7E,
77281001,00000140,false,Rx,1,8,17,10,17,10,18,10,D0,9C,
77283000,00000160,false,Rx,1,8,31,C1,00,00,00,00,D0,DE,
77285000,00000100,false,Rx,1,8,00,00,00,00,00,00,D0,A7,
77285004,00000080,false,Rx,1,8,C7,10,00,50,00,00,10,69,
77286000,000003C3,false,Rx,0,6,00,01,FF,FF,FF,F4,00,00,
77287000,00000111,false,Rx,1,8,11,00,00,00,00,00,00,00,
77289000,00000121,false,Rx,1,8,18,10,1A,10,16,10,D0,40,
77289003,00000437,false,Rx,2,8,01,00,00,00,6C,02,06,3A,
77291001,00000131,false,Rx,1,8,18,10,13,10,13,10,D0,CA,
77293000,00000141,false,Rx,1,8,16,10,19,10,15,10,D0,37,
77295000,00000151,false,Rx,1,8,17,10,19,10,14,10,D0,FB,
77296000,000003C3,false,Rx,0,6,00,02,FF,FF,FF,FF,00,00,
77297000,00000161,false,Rx,1,8,32,C1,00,00,00,00,D0,5C,
77298000,00000081,false,Rx,1,8,C7,10,00,50,00,00,10,0C,
77299000,00000170,false,Rx,1,8,32,32,32,32,42,00,D0,F1,
77301005,0000041A,false,Rx,2,8,7E,0D,87,13,CB,CE,0E,A1,
77301013,0000041B,false,Rx,2,8,31,32,00,05,2F,75,0E,47,
77301014,0000041C,false,Rx,2,8,F4,01,00,00,07,18,0E,8D,
77301015,0000041D,false,Rx,2,8,45,25,10,27,00,02,0E,41,
77301017,0000041E,false,Rx,2,8,00,00,00,00,02,6C,0E,8C,
77301029,000003D2,false,Rx,0,6,04,05,00,00,00,69,00,00,
77301030,00000171,false,Rx,1,8,32,32,32,32,3E,00,D0,D6,
77303000,00000106,false,Rx,1,8,00,00,00,00,00,00,10,D1,
77305000,00000105,false,Rx,1,8,00,00,00,00,00,00,10,7E,
77306000,000003C3,false,Rx,0,6,00,03,00,00,00,03,00,00,
77307001,00000102,false,Rx,1,8,00,00,00,00,00,00,10,58,
77309000,00000103,false,Rx,1,8,00,00,00,00,00,00,10,3D,
77311000,00000122,false,Rx,1,8,0F,10,12,10,0F,10,D0,34,
77311003,00000082,false,Rx,1,8,C7,10,00,50,00,00,10,A3,
77313000,00000152,false,Rx,1,8,0B,10,10,10,14,10,D0,4B,
77315000,00000172,false,Rx,1,8,31,32,31,32,3E,00,D0,20,
77316000,000003C3,false,Rx,0,6,00,04,FF,FF,FF,F8,00,00,
77317000,00000113,false,Rx,1,8,11,00,00,00,00,00,00,00,
77319000,00000123,false,Rx,1,8,14,10,14,10,16,10,D0,27,
77321001,00000133,false,Rx,1,8,15,10,EC,0F,16,10,D0,CD,
77323000,00000143,false,Rx,1,8,0D,10,16,10,16,10,D0,81,
77324001,00000083,false,Rx,1,8,C7,10,00,50,00,00,10,C6,
77325000,00000153,false,Rx,1,8,1A,10,16,10,13,10,D0,21,
77326000,000003C3,false,Rx,0,6,00,05,00,00,00,00,00,00,
77327000,00000163,false,Rx,1,8,BA,C0,00,00,00,00,D0,A3,
77329000,00000173,false,Rx,1,8,32,32,32,32,40,00,D0,5D,
77331000,00000100,false,Rx,1,8,00,00,00,00,00,00,E0,ED,
77333000,00000115,false,Rx,1,8,11,00,00,00,00,00,00,00,
77335000,00000125,false,Rx,1,8,19,10,1E,10,1A,10,D0,2B,
77336000,000003C3,false,Rx,0,6,00,06,FF,FF,FF,EC,00,00,
77337000,00000135,false,Rx,1,8,18,10,10,10,18,10,D0,7D,
77337003,00000084,false,Rx,1,8,C7,10,00,50,00,00,10,E0,
77339000,00000145,false,Rx,1,8,1A,10,1B,10,15,10,D0,D1,
77341001,00000155,false,Rx,1,8,19,10,18,10,09,10,D0,84,
77343000,00000165,false,Rx,1,8,1F,C1,00,00,00,00,D0,5C,
77345000,00000106,false,Rx,1,8,00,00,00,00,00,00,20,9B,
77346000,000003C3,false,Rx,0,6,00,07,00,00,00,03,00,00,
77347000,00000107,false,Rx,1,8,00,00,00,00,00,00,20,FE,
77349000,00000116,false,Rx,1,8,11,00,00,00,00,00,00,00,
77350001,00000085,false,Rx,1,8,C7,10,00,50,00,00,10,85,
77351000,00000105,false,Rx,1,8,00,00,00,00,00,00,20,34,
77353000,00000102,false,Rx,1,8,00,00,00,00,00,00,20,12,
77355000,00000175,false,Rx,1,8,31,31,31,31,3C,00,D0,75,
77356000,000003C3,false,Rx,0,6,00,08,FF,FF,FF,FC,00,00,
77357000,00000103,false,Rx,1,8,00,00,00,00,00,00,20,77,
77359001,00000101,false,Rx,1,8,00,00,00,00,00,00,20,BD,
77361001,00000126,false,Rx,1,8,11,10,16,10,12,10,D0,2D,
77363000,00000117,false,Rx,1,8,11,00,00,00,00,00,00,00,
77363002,00000086,false,Rx,1,8,C7,10,00,50,00,00,10,2A,
77365000,00000136,false,Rx,1,8,10,10,12,10,0C,10,D0,CA,
77366000,000003C3,false,Rx,0,6,00,09,FF,FF,FF,EF,00,00,
77367000,00000127,false,Rx,1,8,F8,0F,F9,0F,F4,0F,D0,C8,
77369000,00000146,false,Rx,1,8,16,10,16,10,16,10,D0,E1,
77371000,00000137,false,Rx,1,8,F5,0F,F7,0F,F4,0F,D0,26,
77373000,00000157,false,Rx,1,8,F7,0F,F7,0F,F6,0F,D0,DB,
77375000,00000110,false,Rx,1,8,11,00,00,00,00,00,00,00,
77376000,000003C3,false,Rx,0,6,00,0A,FF,FF,FF,F2,00,00,
77376001,00000087,false,Rx,1,8,C7,10,00,50,00,00,10,4F,
77377000,00000120,false,Rx,1,8,15,10,1A,10,1A,10,E0,83,
77379000,00000130,false,Rx,1,8,18,10,11,10,15,10,E0,34,
77381001,00000140,false,Rx,1,8,17,10,17,10,18,10,E0,D6,
77383000,00000150,false,Rx,1,8,09,10,1E,10,19,10,E0,E2,
77385000,00000177,false,Rx,1,8,31,32,31,31,3F,00,D0,F9,
77386000,000003C3,false,Rx,0,6,00,0B,FF,FF,FF,FF,00,00,
77387000,00000160,false,Rx,1,8,31,C1,00,00,00,00,E0,94,
77389000,00000100,false,Rx,1,8,00,00,00,00,00,00,00,5F,
77389003,00000080,false,Rx,1,8,C7,10,00,50,00,00,20,23,
77389004,00000437,false,Rx,2,8,01,00,00,00,6C,02,07,BD,
77391000,00000111,false,Rx,1,8,11,00,00,00,00,00,00,00,
77393000,00000121,false,Rx,1,8,18,10,1A,10,16,10,E0,0A,
77395000,00000131,false,Rx,1,8,16,10,13,10,15,10,E0,84,
77396000,000003C3,false,Rx,0,6,00,0C,FF,FF,FF,E2,00,00,
77397000,00000141,false,Rx,1,8,16,10,19,10,15,10,E0,7D,
77399000,00000151,false,Rx,1,8,17,10,19,10,13,10,E0,3B,
77401000,000003D2,false,Rx,0,6,04,06,00,00,00,69,00,00,
77401001,00000170,false,Rx,1,8,32,32,32,32,42,00,E0,BB,
77401010,0000041A,false,Rx,2,8,7E,0D,87,13,CB,CE,0F,26,
77401018,0000041B,false,Rx,2,8,31,32,00,05,2E,75,0F,77,
77401019,0000041C,false,Rx,2,8,F4,01,00,00,07,18,0F,0A,
77401020,0000041D,false,Rx,2,8,45,25,10,27,00,02,0F,C6,
77401021,0000041E,false,Rx,2,8,00,00,00,00,02,6C,0F,0B,
77402000,00000081,false,Rx,1,8,C7,10,00,50,00,00,20,46,
77403000,00000112,false,Rx,1,8,11,00,00,00,00,00,00,00,
77405000,00000106,false,Rx,1,8,00,00,00,00,00,00,30,56,
77406000,000003C3,false,Rx,0,6,00,0D,FF,FF,FF,FA,00,00,
77407000,00000107,false,Rx,1,8,00,00,00,00,00,00,30,33,
77409000,00000105,false,Rx,1,8,00,00,00,00,00,00,30,F9,
77411000,00000122,false,Rx,1,8,0F,10,12,10,0F,10,E0,7E,
77413000,00000132,false,Rx,1,8,0A,10,0A,10,0D,10,E0,CE,
77415000,00000082,false,Rx,1,8,C7,10,00,50,00,00,20,E9,
77415002,00000142,false,Rx,1,8,10,10,0F,10,0F,10,E0,99,
77416000,000003C3,false,Rx,0,6,00,0E,FF,FF,FF,F7,00,00,
77417000,00000171,false,Rx,1,8,32,32,32,32,3D,00,E0,10,
77419000,00000172,false,Rx,1,8,31,32,31,32,3E,00,E0,6A,
77421000,00000113,false,Rx,1,8,11,00,00,00,00,00,00,00,
77423000,00000101,false,Rx,1,8,00,00,00,00,00,00,30,70,
77425000,00000123,false,Rx,1,8,14,10,14,10,16,10,E0,6D,
77426000,000003C3,false,Rx,0,6,00,0F,FF,FF,FF,F8,00,00,
77427000,00000133,false,Rx,1,8,15,10,EC,0F,16,10,E0,87,
77428000,00000083,false,Rx,1,8,C7,10,00,50,00,00,20,8C,
77429000,00000143,false,Rx,1,8,0D,10,16,10,15,10,E0,47,
77431000,00000163,false,Rx,1,8,BA,C0,00,00,00,00,E0,E9,
77433000,00000173,false,Rx,1,8,32,32,32,32,3F,00,E0,D9,
77435000,00000100,false,Rx,1,8,00,00,00,00,00,00,10,92,
77436000,000003C3,false,Rx,0,6,00,00,FF,FF,FF,E8,00,00,
77437000,00000115,false,Rx,1,8,11,00,00,00,00,00,00,00,
77439000,00000125,false,Rx,1,8,19,10,1E,10,1A,10,E0,61,
77441001,00000135,false,Rx,1,8,18,10,10,10,18,10,E0,37,
77441004,00000084,false,Rx,1,8,C7,10,00,50,00,00,20,AA,
77443000,000001D6,false,Rx,1,8,22,22,22,22,22,22,29,92,
77445000,000001D7,false,Rx,1,8,22,22,22,22,22,22,29,92,
77446000,000003C3,false,Rx,0,6,00,01,FF,FF,FF,EA,00,00,
77447001,00000145,false,Rx,1,8,1A,10,1A,10,15,10,E0,F1,
77449000,00000155,false,Rx,1,8,19,10,18,10,09,10,E0,CE,
77451000,00000165,false,Rx,1,8,1F,C1,00,00,00,00,E0,16,
77453000,000001D5,false,Rx,1,8,22,22,22,22,22,22,29,92,
77454000,00000085,false,Rx,1,8,C7,10,00,50,00,00,20,CF,
77455000,00000116,false,Rx,1,8,11,00,00,00,00,00,00,00,
77456000,000003C3,false,Rx,0,6,00,02,FF,FF,FF,F5,00,00,
77457000,000001D2,false,Rx,1,8,22,22,22,22,22,22,29,92,
77459000,00000107,false,Rx,1,8,00,00,00,00,00,00,40,6A,
77461001,00000106,false,Rx,1,8,00,00,00,00,00,00,40,0F,
77463001,000001D1,false,Rx,1,8,22,22,22,22,22,22,29,92,
77465000,00000175,false,Rx,1,8,31,31,31,31,3C,00,E0,3F,
77466000,000003C3,false,Rx,0,6,00,03,FF,FF,FF,FB,00,00,
77467000,00000105,false,Rx,1,8,00,00,00,00,00,00,40,A0,
77467003,00000086,false,Rx,1,8,C7,10,00,50,00,00,20,60,
77469000,00000126,false,Rx,1,8,11,10,17,10,10,10,E0,0E,
77471000,00000102,false,Rx,1,8,00,00,00,00,00,00,40,86,
77473000,00000117,false,Rx,1,8,11,00,00,00,00,00,00,00,
77475000,00000103,false,Rx,1,8,00,00,00,00,00,00,40,E3,
77476000,000003C3,false,Rx,0,6,00,04,FF,FF,FF,F6,00,00,
77477000,00000176,false,Rx,1,8,32,32,32,32,3D,00,E0,36,
77479000,00000137,false,Rx,1,8,F5,0F,F7,0F,F4,0F,E0,6C,
77480000,00000087,false,Rx,1,8,C7,10,00,50,00,00,20,05,
77481001,00000157,false,Rx,1,8,F7,0F,F7,0F,F6,0F,E0,91,
77483000,00000177,false,Rx,1,8,31,32,31,31,40,00,E0,7D,
77485000,00000110,false,Rx,1,8,11,00,00,00,00,00,00,00,
77486000,000003C3,false,Rx,0,6,00,05,FF,FF,FF,E8,00,00,
77487000,00000120,false,Rx,1,8,15,10,1A,10,1A,10,00,31,
77489000,00000140,false,Rx,1,8,17,10,17,10,18,10,00,64,
77489003,00000437,false,Rx,2,8,01,00,00,00,6C,02,08,10,
77491001,00000160,false,Rx,1,8,31,C1,00,00,00,00,00,26,
77493000,000001C3,false,Rx,1,8,22,22,22,22,25,22,42,22,
77493002,00000080,false,Rx,1,8,C7,10,00,50,00,00,30,EE,
77495000,000001C1,false,Rx,1,8,22,22,22,22,25,22,42,22,
77496000,000003C3,false,Rx,0,6,00,06,FF,FF,FF,EE,00,00,
77497000,00000111,false,Rx,1,8,11,00,00,00,00,00,00,00,
77499000,00000100,false,Rx,1,8,00,00,00,00,00,00,20,D8,
77501000,000003D2,false,Rx,0,6,04,07,00,00,00,69,00,00,
77501001,00000170,false,Rx,1,8,32,32,32,32,41,00,00,85,
77501010,0000041A,false,Rx,2,8,7E,0D,87,13,CB,CE,00,8B,
77501017,0000041B,false,Rx,2,8,31,32,00,05,2F,75,00,6D,
77501019,0000041C,false,Rx,2,8,F4,01,00,00,07,18,00,A7,
77501020,0000041D,false,Rx,2,8,45,25,10,27,00,02,00,6B,
77501021,0000041E,false,Rx,2,8,00,00,00,00,02,6C,00,A6,
77503000,00000121,false,Rx,1,8,18,10,1A,10,16,10,00,B8,
77505000,00000131,false,Rx,1,8,16,10,13,10,13,10,00,33,
77506000,000003C3,false,Rx,0,6,00,07,00,00,00,00,00,00,
77506001,00000081,false,Rx,1,8,C7,10,00,50,00,00,30,8B,
77507000,00000141,false,Rx,1,8,17,10,19,10,15,10,00,92,
77509000,00000112,false,Rx,1,8,11,00,00,00,00,00,00,00,
77511001,00000151,false,Rx,1,8,17,10,19,10,13,10,00,89,
77513000,00000161,false,Rx,1,8,32,C1,00,00,00,00,00,A4,
77515000,00000171,false,Rx,1,8,32,32,32,32,3E,00,00,2E,
77516000,000003C3,false,Rx,0,6,00,08,FF,FF,FF,EE,00,00,
77517000,00000132,false,Rx,1,8,0A,10,0A,10,0D,10,00,7C,
77519000,00000082,false,Rx,1,8,C7,10,00,50,00,00,30,24,
77519002,00000152,false,Rx,1,8,0B,10,10,10,14,10,00,B3,
77521000,00000105,false,Rx,1,8,00,00,00,00,00,00,50,6D,
77523000,00000113,false,Rx,1,8,11,00,00,00,00,00,00,00,
77525000,00000103,false,Rx,1,8,00,00,00,00,00,00,50,2E,
77526000,000003C3,false,Rx,0,6,00,09,FF,FF,FF,F1,00,00,
77527000,00000102,false,Rx,1,8,00,00,00,00,00,00,50,4B,
77529000,00000123,false,Rx,1,8,14,10,14,10,16,10,00,DF,
77531000,00000133,false,Rx,1,8,15,10,EC,0F,16,10,00,35,
77532001,00000083,false,Rx,1,8,C7,10,00,50,00,00,30,41,
77533000,00000153,false,Rx,1,8,1A,10,16,10,13,10,00,D9,
77535000,00000173,false,Rx,1,8,32,32,32,32,40,00,00,A5,
77536000,000003C3,false,Rx,0,6,00,0A,FF,FF,FF,E6,00,00,
77537000,00000115,false,Rx,1,8,11,00,00,00,00,00,00,00,
77539000,00000125,false,Rx,1,8,19,10,1E,10,1A,10,00,D3,
77541001,00000100,false,Rx,1,8,00,00,00,00,00,00,30,15,
77543000,00000135,false,Rx,1,8,18,10,10,10,18,10,00,85,
77545000,00000145,false,Rx,1,8,1A,10,1B,10,15,10,00,29,
77545004,00000084,false,Rx,1,8,C7,10,00,50,00,00,30,67,
77546000,000003C3,false,Rx,0,6,00,0B,FF,FF,FF,F6,00,00,
77547000,00000155,false,Rx,1,8,19,10,18,10,09,10,00,7C,
77549000,00000165,false,Rx,1,8,1F,C1,00,00,00,00,00,A4,
77551000,00000116,false,Rx,1,8,11,00,00,00,00,00,00,00,
77553000,00000107,false,Rx,1,8,00,00,00,00,00,00,60,ED,
77555000,00000106,false,Rx,1,8,00,00,00,00,00,00,60,88,
77556000,000003C3,false,Rx,0,6,00,0C,FF,FF,FF,F2,00,00,
77557000,00000175,false,Rx,1,8,31,31,31,31,3C,00,00,8D,
77558001,00000085,false,Rx,1,8,C7,10,00,50,00,00,30,02,
77559000,00000126,false,Rx,1,8,11,10,17,10,12,10,00,BF,
77561001,00000136,false,Rx,1,8,10,10,12,10,0C,10,00,32,
77563000,00000117,false,Rx,1,8,11,00,00,00,00,00,00,00,
77565000,00000146,false,Rx,1,8,16,10,16,10,18,10,00,10,
77566000,000003C3,false,Rx,0,6,00,0D,FF,FF,FF,FF,00,00,
77567000,00000127,false,Rx,1,8,F8,0F,F9,0F,F4,0F,00,30,
77569000,00000156,false,Rx,1,8,0E,10,14,10,16,10,00,B8,
77571000,00000105,false,Rx,1,8,00,00,00,00,00,00,60,27,
77571004,00000086,false,Rx,1,8,C7,10,00,50,00,00,30,AD,
77573000,00000137,false,Rx,1,8,F5,0F,F5,0F,F5,0F,00,85,
77575000,00000166,false,Rx,1,8,E5,C0,00,00,00,00,00,8C,
77576000,000003C3,false,Rx,0,6,00,0E,FF,FF,FF,F1,00,00,
77577000,00000147,false,Rx,1,8,F6,0F,F2,0F,F7,0F,00,30,
77579000,00000102,false,Rx,1,8,00,00,00,00,00,00,60,01,
77581000,00000167,false,Rx,1,8,77,BF,00,00,00,00,00,E2,
77583000,00000110,false,Rx,1,8,11,00,00,00,00,00,00,00,
77584000,00000087,false,Rx,1,8,C7,10,00,50,00,00,30,C8,
77585000,00000120,false,Rx,1,8,15,10,1A,10,1A,10,10,FC,
77586000,000003C3,false,Rx,0,6,00,0F,FF,FF,FF,FE,00,00,
77587000,00000111,false,Rx,1,8,11,00,00,00,00,00,00,00,
77589000,00000130,false,Rx,1,8,18,10,11,10,15,10,10,4B,
77589003,000003D8,false,Rx,2,3,91,02,00,00,00,00,00,00,
77591000,00000140,false,Rx,1,8,17,10,17,10,18,10,10,A9,
77591003,00000437,false,Rx,2,8,01,00,00,00,6C,02,09,97,
77593000,00000150,false,Rx,1,8,09,10,1E,10,19,10,10,9D,
77595000,00000160,false,Rx,1,8,31,C1,00,00,00,00,10,EB,
77596000,000003C3,false,Rx,0,6,00,00,FF,FF,FF,F8,00,00,
77597000,00000121,false,Rx,1,8,1A,10,1A,10,16,10,10,CF,
77597003,00000080,false,Rx,1,8,C7,10,00,50,00,00,40,B7,
77599000,00000100,false,Rx,1,8,00,00,00,00,00,00,40,4C,
77601000,00000131,false,Rx,1,8,16,10,13,10,13,10,10,FE,
77601009,0000041A,false,Rx,2,8,7E,0D,87,13,CB,CE,01,0C,
77601016,0000041B,false,Rx,2,8,31,32,00,05,2F,75,01,EA,
77601018,0000041C,false,Rx,2,8,F4,01,00,00,07,18,01,20,
77601019,0000041D,false,Rx,2,8,45,25,10,27,00,02,01,EC,
77601020,0000041E,false,Rx,2,8,00,00,00,00,02,6C,01,21,
77601021,000003D2,false,Rx,0,6,04,08,00,00,00,69,00,00,
77603001,00000170,false,Rx,1,8,32,32,32,32,42,00,10,C4,
77605000,00000141,false,Rx,1,8,16,10,19,10,15,10,10,02,
77606000,000003C3,false,Rx,0,6,00,01,FF,FF,FF,F1,00,00,
77607000,00000151,false,Rx,1,8,17,10,19,10,13,10,10,44,
77609000,00000161,false,Rx,1,8,32,C1,00,00,00,00,10,69,
77610001,00000081,false,Rx,1,8,C7,10,00,50,00,00,40,D2,
77611000,00000171,false,Rx,1,8,32,32,32,32,3E,00,10,E3,
77613000,00000112,false,Rx,1,8,11,00,00,00,00,00,00,00,
77615000,00000122,false,Rx,1,8,0F,10,12,10,0F,10,10,01,
77616000,000003C3,false,Rx,0,6,00,02,FF,FF,FF,E5,00,00,
77617000,00000132,false,Rx,1,8,0A,10,0A,10,0D,10,10,B1,
77619000,00000142,false,Rx,1,8,10,10,0F,10,0F,10,10,E6,
77621001,00000152,false,Rx,1,8,0C,10,10,10,14,10,10,F0,
77623000,00000082,false,Rx,1,8,C7,10,00,50,00,00,40,7D,
77623002,00000162,false,Rx,1,8,D1,C0,00,00,00,00,10,77,
77625000,00000107,false,Rx,1,8,00,00,00,00,00,00,70,20,
77626000,000003C3,false,Rx,0,6,00,03,FF,FF,FF,FD,00,00,
77627000,00000105,false,Rx,1,8,00,00,00,00,00,00,70,EA,
77629000,00000113,false,Rx,1,8,11,00,00,00,00,00,00,00,
77631000,00000103,false,Rx,1,8,00,00,00,00,00,00,70,A9,
77633000,00000123,false,Rx,1,8,14,10,14,10,16,10,10,12,
77635000,00000143,false,Rx,1,8,0D,10,16,10,16,10,10,B4,
77636000,000003C3,false,Rx,0,6,00,04,FF,FF,FF,F9,00,00,
77636001,00000083,false,Rx,1,8,C7,10,00,50,00,00,40,18,
77637000,00000163,false,Rx,1,8,BA,C0,00,00,00,00,10,96,
77639000,00000101,false,Rx,1,8,00,00,00,00,00,00,70,63,
77641000,000001D0,false,Rx,1,8,22,22,22,22,22,22,29,92,
77643000,00000115,false,Rx,1,8,11,00,00,00,00,00,00,00,
77645000,00000125,false,Rx,1,8,19,10,1E,10,1B,10,10,91,
77646000,000003C3,false,Rx,0,6,00,05,FF,FF,FF,F7,00,00,
77647000,00000135,false,Rx,1,8,18,10,10,10,16,10,10,41,
77649000,00000084,false,Rx,1,8,C7,10,00,50,00,00,40,3E,
77649002,00000145,false,Rx,1,8,1A,10,1B,10,15,10,10,E4,
77651000,00000155,false,Rx,1,8,19,10,18,10,09,10,10,B1,
77653000,00000100,false,Rx,1,8,00,00,00,00,00,00,50,81,
77655000,00000165,false,Rx,1,8,1F,C1,00,00,00,00,10,69,
77656000,000003C3,false,Rx,0,6,00,06,FF,FF,FF,F6,00,00,
77657000,000001D6,false,Rx,1,8,22,22,22,22,22,22,29,92,
77659000,000001D7,false,Rx,1,8,22,22,22,22,22,22,29,92,
77661001,00000116,false,Rx,1,8,11,00,00,00,00,00,00,00,
77662000,00000085,false,Rx,1,8,C7,10,00,50,00,00,40,5B,
77663000,000001D5,false,Rx,1,8,22,22,22,22,22,22,29,92,
77665000,000001D2,false,Rx,1,8,22,22,22,22,22,22,29,92,
77666000,000003C3,false,Rx,0,6,00,07,FF,FF,FF,E3,00,00,
77667000,00000107,false,Rx,1,8,00,00,00,00,00,00,80,5F,
77669000,00000106,false,Rx,1,8,00,00,00,00,00,00,80,3A,
77671000,00000175,false,Rx,1,8,31,31,31,31,3C,00,10,40,
77673000,000001D3,false,Rx,1,8,22,22,22,22,22,22,29,92,
77675000,000001D1,false,Rx,1,8,22,22,22,22,22,22,29,92,
77675002,00000086,false,Rx,1,8,C7,10,00,50,00,00,40,F4,
77676000,000003C3,false,Rx,0,6,00,08,FF,FF,FF,F2,00,00,
77677000,00000126,false,Rx,1,8,11,10,17,10,10,10,10,71,
77679000,000001C0,false,Rx,1,8,22,22,22,22,25,22,42,22,
77681001,00000117,false,Rx,1,8,11,00,00,00,00,00,00,00,
77683000,00000137,false,Rx,1,8,F5,0F,F7,0F,F4,0F,10,13,
77685000,00000157,false,Rx,1,8,F7,0F,F7,0F,F6,0F,10,EE,
77686000,000003C3,false,Rx,0,6,00,09,FF,FF,FF,EC,00,00,
77687000,00000103,false,Rx,1,8,00,00,00,00,00,00,80,D6,
77688001,00000087,false,Rx,1,8,C7,10,00,50,00,00,40,91,
77689000,00000437,false,Rx,2,8,01,00,00,00,6C,02,0A,1E,
77689002,00000101,false,Rx,1,8,00,00,00,00,00,00,80,1C,
77691001,00000177,false,Rx,1,8,31,32,31,31,40,00,10,02,
77693000,000001C6,false,Rx,1,8,22,22,22,22,25,22,42,22,
77695000,000001C7,false,Rx,1,8,22,22,22,22,25,22,42,22,
77696000,000003C3,false,Rx,0,6,00,0A,FF,FF,FF,F1,00,00,
77697000,000001C5,false,Rx,1,8,22,22,22,22,25,22,42,22,
77699000,000001C2,false,Rx,1,8,22,22,22,22,25,22,42,22,
77701000,000003D2,false,Rx,0,6,04,09,00,00,00,69,00,00,
77701001,00000111,false,Rx,1,8,11,00,00,00,00,00,00,00,
77701003,00000080,false,Rx,1,8,C7,10,00,50,00,00,50,7A,
77701009,0000041A,false,Rx,2,8,7E,0D,87,13,CB,CE,02,85,
77701017,0000041B,false,Rx,2,8,31,32,00,05,2F,75,02,63,
77701018,0000041C,false,Rx,2,8,F4,01,00,00,07,18,02,A9,
77701019,0000041D,false,Rx,2,8,45,25,10,27,00,02,02,65,
77701021,0000041E,false,Rx,2,8,00,00,00,00,02,6C,02,A8,
77703001,00000121,false,Rx,1,8,18,10,1C,10,17,10,20,D1,
77705000,000001C3,false,Rx,1,8,22,22,22,22,25,22,42,22,
77706000,000003C3,false,Rx,0,6,00,0B,00,00,00,00,00,00,
77707000,00000100,false,Rx,1,8,00,00,00,00,00,00,60,CB,
77709000,00000131,false,Rx,1,8,16,10,13,10,13,10,20,B4,
77711000,00000151,false,Rx,1,8,17,10,19,10,13,10,20,0E,
77713000,000001C1,false,Rx,1,8,22,22,22,22,25,22,42,22,
77714000,00000081,false,Rx,1,8,C7,10,00,50,00,00,50,1F,
77715000,00000112,false,Rx,1,8,11,00,00,00,00,00,00,00,
77716000,000003C3,false,Rx,0,6,00,0C,00,00,00,03,00,00,
77717000,00000122,false,Rx,1,8,0F,10,12,10,0F,10,20,4B,
77719000,00000132,false,Rx,1,8,0A,10,0A,10,0D,10,20,FB,
77721001,00000142,false,Rx,1,8,10,10,0F,10,0F,10,20,AC,
77723000,00000152,false,Rx,1,8,0B,10,0F,10,14,10,20,A6,
77725000,00000162,false,Rx,1,8,D1,C0,00,00,00,00,20,3D,
77726000,000003C3,false,Rx,0,6,00,0D,FF,FF,FF,D6,00,00,
77727000,00000171,false,Rx,1,8,32,32,32,32,3D,00,20,25,
77727003,00000082,false,Rx,1,8,C7,10,00,50,00,00,50,B0,
77729000,00000172,false,Rx,1,8,31,32,31,32,3E,00,20,5F,
77731000,00000106,false,Rx,1,8,00,00,00,00,00,00,90,F7,
77733000,00000113,false,Rx,1,8,11,00,00,00,00,00,00,00,
77735000,00000123,false,Rx,1,8,14,10,14,10,16,10,20,58,
77736000,000003C3,false,Rx,0,6,00,0E,FF,FF,FF,F8,00,00,
77737000,00000133,false,Rx,1,8,15,10,EC,0F,16,10,20,B2,
77739000,00000153,false,Rx,1,8,1A,10,16,10,13,10,20,5E,
77740000,00000083,false,Rx,1,8,C7,10,00,50,00,00,50,D5,
77741001,00000173,false,Rx,1,8,32,32,32,32,40,00,20,22,
77743000,00000102,false,Rx,1,8,00,00,00,00,00,00,90,7E,
77745000,00000103,false,Rx,1,8,00,00,00,00,00,00,90,1B,
77746000,000003C3,false,Rx,0,6,00,0F,FF,FF,FF,EB,00,00,
77747000,00000100,false,Rx,1,8,00,00,00,00,00,00,70,06,
77749000,00000115,false,Rx,1,8,11,00,00,00,00,00,00,00,
77751001,00000125,false,Rx,1,8,19,10,1E,10,1A,10,20,54,
77753000,00000135,false,Rx,1,8,18,10,10,10,18,10,20,02,
77753003,00000084,false,Rx,1,8,C7,10,00,50,00,00,50,F3,
77755000,00000145,false,Rx,1,8,1A,10,1A,10,15,10,20,C4,
77756000,000003C3,false,Rx,0,6,00,00,00,00,00,08,00,00,
77757000,00000155,false,Rx,1,8,19,10,18,10,09,10,20,FB,
77759000,00000165,false,Rx,1,8,1F,C1,00,00,00,00,20,23,
77761001,00000116,false,Rx,1,8,11,00,00,00,00,00,00,00,
77763000,00000175,false,Rx,1,8,31,31,31,31,3C,00,20,0A,
77765000,00000126,false,Rx,1,8,11,10,17,10,10,10,20,3B,
77766000,000003C3,false,Rx,0,6,00,01,FF,FF,FF,F2,00,00,
77766001,00000085,false,Rx,1,8,C7,10,00,50,00,00,50,96,
77767000,00000136,false,Rx,1,8,10,10,12,10,0C,10,20,B5,
77769000,00000107,false,Rx,1,8,00,00,00,00,00,00,A0,D8,
77771001,00000146,false,Rx,1,8,15,10,17,10,18,10,20,1A,
77773000,00000156,false,Rx,1,8,0D,10,14,10,14,10,20,DB,
77775000,00000166,false,Rx,1,8,F8,C0,00,00,00,00,20,54,
77776000,000003C3,false,Rx,0,6,00,02,FF,FF,FF,EA,00,00,
77777001,00000117,false,Rx,1,8,11,00,00,00,00,00,00,00,
77779000,00000176,false,Rx,1,8,32,32,32,32,3D,00,20,03,
77779003,00000086,false,Rx,1,8,C7,10,00,50,00,00,50,39,
77781001,00000106,false,Rx,1,8,00,00,00,00,00,00,A0,BD,
77783000,00000105,false,Rx,1,8,00,00,00,00,00,00,A0,12,
77785000,00000127,false,Rx,1,8,F8,0F,F9,0F,F4,0F,20,B7,
77786000,000003C3,false,Rx,0,6,00,03,FF,FF,FF,EB,00,00,
77787000,00000137,false,Rx,1,8,F5,0F,F7,0F,F4,0F,20,59,
77789000,00000102,false,Rx,1,8,00,00,00,00,00,00,A0,34,
77789003,00000437,false,Rx,2,8,01,00,00,00,6C,02,0B,99,
77791000,00000147,false,Rx,1,8,F6,0F,F2,0F,F7,0F,20,B7,
77792001,00000087,false,Rx,1,8,C7,10,00,50,00,00,50,5C,
77793000,00000157,false,Rx,1,8,F7,0F,F7,0F,F6,0F,20,A4,
77795000,00000103,false,Rx,1,8,00,00,00,00,00,00,A0,51,
77796000,000003C3,false,Rx,0,6,00,04,FF,FF,FF,E1,00,00,
77797000,00000110,false,Rx,1,8,11,00,00,00,00,00,00,00,
77799000,00000120,false,Rx,1,8,15,10,1A,10,1A,10,20,B6,
77801000,000003D2,false,Rx,0,6,04,0A,00,00,00,69,00,00,
77801001,00000130,false,Rx,1,8,18,10,11,10,15,10,20,01,
77801010,0000041A,false,Rx,2,8,7E,0D,87,13,CB,CE,03,02,
77801018,0000041B,false,Rx,2,8,31,32,00,05,2E,75,03,53,
77801019,0000041C,false,Rx,2,8,F4,01,00,00,07,18,03,2E,
77801020,0000041D,false,Rx,2,8,45,25,10,27,00,02,03,E2,
77801021,0000041E,false,Rx,2,8,00,00,00,00,02,6C,03,2F,
77803000,00000140,false,Rx,1,8,17,10,17,10,18,10,20,E3,
77805000,00000150,false,Rx,1,8,08,10,1E,10,19,10,20,8A,
77805003,00000080,false,Rx,1,8,C7,10,00,50,00,00,60,30,
77806000,000003C3,false,Rx,0,6,00,05,FF,FF,FF,F3,00,00,
77807000,00000160,false,Rx,1,8,31,C1,00,00,00,00,20,A1,
77809000,00000170,false,Rx,1,8,32,32,32,32,42,00,20,8E,
77811000,00000111,false,Rx,1,8,11,00,00,00,00,00,00,00,
77813000,00000100,false,Rx,1,8,00,00,00,00,00,00,80,79,
77815000,00000121,false,Rx,1,8,18,10,1A,10,16,10,30,F2,
77816000,000003C3,false,Rx,0,6,00,06,FF,FF,FF,F5,00,00,
77817000,00000131,false,Rx,1,8,16,10,13,10,15,10,30,7C,
77818001,00000081,false,Rx,1,8,C7,10,00,50,00,00,60,55,
77819000,00000112,false,Rx,1,8,11,00,00,00,00,00,00,00,
77821001,00000141,false,Rx,1,8,16,10,19,10,15,10,30,85,
77823000,00000151,false,Rx,1,8,17,10,19,10,13,10,30,C3,
77825000,00000161,false,Rx,1,8,32,C1,00,00,00,00,30,EE,
77826000,000003C3,false,Rx,0,6,00,07,FF,FF,FF,F4,00,00,
77827000,00000132,false,Rx,1,8,0A,10,0C,10,0F,10,30,54,
77829000,00000152,false,Rx,1,8,0B,10,10,10,13,10,30,73,
77831000,00000172,false,Rx,1,8,31,32,31,32,3E,00,30,92,
77831004,00000082,false,Rx,1,8,C7,10,00,50,00,00,60,FA,
77833000,00000113,false,Rx,1,8,11,00,00,00,00,00,00,00,
77835000,00000106,false,Rx,1,8,00,00,00,00,00,00,B0,70,
77836000,000003C3,false,Rx,0,6,00,08,FF,FF,FF,ED,00,00,
77837000,00000107,false,Rx,1,8,00,00,00,00,00,00,B0,15,
77839001,00000123,false,Rx,1,8,14,10,14,10,16,10,30,95,
77841000,00000105,false,Rx,1,8,00,00,00,00,00,00,B0,DF,
77843000,00000163,false,Rx,1,8,BA,C0,00,00,00,00,30,11,
77844001,00000083,false,Rx,1,8,C7,10,00,50,00,00,60,9F,
77845000,00000173,false,Rx,1,8,32,32,32,32,40,00,30,EF,
77846000,000003C3,false,Rx,0,6,00,09,FF,FF,FF,F7,00,00,
77847000,00000102,false,Rx,1,8,00,00,00,00,00,00,B0,F9,
77849000,00000103,false,Rx,1,8,00,00,00,00,00,00,B0,9C,
77851000,00000101,false,Rx,1,8,00,00,00,00,00,00,B0,56,
77853000,000001D0,false,Rx,1,8,22,22,22,22,22,22,29,92,
77855000,00000115,false,Rx,1,8,11,00,00,00,00,00,00,00,
77856000,000003C3,false,Rx,0,6,00,0A,00,00,00,01,00,00,
77857000,00000100,false,Rx,1,8,00,00,00,00,00,00,90,B4,
77857003,00000084,false,Rx,1,8,C7,10,00,50,00,00,60,B9,
77859000,00000116,false,Rx,1,8,11,00,00,00,00,00,00,00,
77861000,00000125,false,Rx,1,8,19,10,1E,10,1A,10,30,99,
77863000,00000135,false,Rx,1,8,18,10,10,10,18,10,30,CF,
77865000,000001D7,false,Rx,1,8,22,22,22,22,22,22,29,92,
77866000,000003C3,false,Rx,0,6,00,0B,FF,FF,FF,F1,00,00,
77867000,000001D6,false,Rx,1,8,22,22,22,22,22,22,29,92,
77869000,00000145,false,Rx,1,8,1A,10,1A,10,16,10,30,85,
77870001,00000085,false,Rx,1,8,C7,10,00,50,00,00,60,DC,
77871000,00000155,false,Rx,1,8,19,10,18,10,09,10,30,36,
77873000,00000165,false,Rx,1,8,1F,C1,00,00,00,00,30,EE,
77875000,00000175,false,Rx,1,8,31,31,31,31,3C,00,30,C7,
77876000,000003C3,false,Rx,0,6,00,0C,FF,FF,FF,FD,00,00,
77877000,00000126,false,Rx,1,8,11,10,17,10,10,10,30,F6,
77879000,00000136,false,Rx,1,8,10,10,12,10,0C,10,30,78,
77881001,00000146,false,Rx,1,8,16,10,17,10,18,10,30,30,
77883000,000001C0,false,Rx,1,8,22,22,22,22,25,22,42,22,
77883002,00000086,false,Rx,1,8,C7,10,00,50,00,00,60,73,
77885000,00000156,false,Rx,1,8,0E,10,14,10,14,10,30,F1,
77886000,000003C3,false,Rx,0,6,00,0D,FF,FF,FF,F1,00,00,
77887000,00000166,false,Rx,1,8,F8,C0,00,00,00,00,30,99,
77889000,00000117,false,Rx,1,8,11,00,00,00,00,00,00,00,
77889001,00000437,false,Rx,2,8,01,00,00,00,6C,02,0C,0C,
77891000,00000137,false,Rx,1,8,F5,0F,F7,0F,F4,0F,30,94,
77893000,00000157,false,Rx,1,8,F7,0F,F7,0F,F6,0F,30,69,
77895000,00000107,false,Rx,1,8,00,00,00,00,00,00,C0,4C,
77896000,000003C3,false,Rx,0,6,00,0E,FF,FF,FF,E0,00,00,
77896001,00000087,false,Rx,1,8,C7,10,00,50,00,00,60,16,
77897000,00000105,false,Rx,1,8,00,00,00,00,00,00,C0,86,
77899000,00000102,false,Rx,1,8,00,00,00,00,00,00,C0,A0,
77901005,0000041A,false,Rx,2,8,7E,0D,87,13,CB,CE,04,97,
77901013,0000041B,false,Rx,2,8,31,32,00,05,2E,75,04,C6,
77901014,0000041C,false,Rx,2,8,F4,01,00,00,07,18,04,BB,
77901015,0000041D,false,Rx,2,8,45,25,10,27,00,02,04,77,
77901017,0000041E,false,Rx,2,8,00,00,00,00,02,6C,04,BA,
77901018,000003D2,false,Rx,0,6,04,0B,00,00,00,69,00,00,
77901019,00000110,false,Rx,1,8,11,00,00,00,00,00,00,00,
77903000,00000101,false,Rx,1,8,00,00,00,00,00,00,C0,0F,
77905000,00000120,false,Rx,1,8,15,10,1A,10,1A,10,30,7B,
77906000,000003C3,false,Rx,0,6,00,0F,FF,FF,FF,F4,00,00,
77907000,00000130,false,Rx,1,8,18,10,11,10,15,10,30,CC,
77909000,00000140,false,Rx,1,8,17,10,17,10,18,10,30,2E,
77909003,00000080,false,Rx,1,8,C7,10,00,50,00,00,70,FD,
77911000,00000160,false,Rx,1,8,31,C1,00,00,00,00,30,6C,
77913000,00000170,false,Rx,1,8,32,32,32,32,41,00,30,CF,
77915000,00000111,false,Rx,1,8,11,00,00,00,00,00,00,00,
77916000,000003C3,false,Rx,0,6,00,00,FF,FF,FF,F9,00,00,
77917000,000001C5,false,Rx,1,8,22,22,22,22,25,22,42,22,
77919000,000001C2,false,Rx,1,8,22,22,22,22,25,22,42,22,
77921000,00000121,false,Rx,1,8,18,10,1A,10,16,10,40,AB,
77922001,00000081,false,Rx,1,8,C7,10,00,50,00,00,70,98,
77923000,00000100,false,Rx,1,8,00,00,00,00,00,00,A0,FE,
77925000,00000151,false,Rx,1,8,17,10,19,10,13,10,40,9A,
77926000,000003C3,false,Rx,0,6,00,01,FF,FF,FF,F2,00,00,
77927000,00000171,false,Rx,1,8,32,32,32,32,3E,00,40,3D,
77929000,00000122,false,Rx,1,8,0F,10,12,10,0F,10,40,DF,
77931000,00000142,false,Rx,1,8,10,10,0E,10,0F,10,40,52,
77933000,00000162,false,Rx,1,8,D1,C0,00,00,00,00,40,A9,
77935000,00000082,false,Rx,1,8,C7,10,00,50,00,00,70,37,
77935002,00000172,false,Rx,1,8,31,32,31,32,3D,00,40,47,
77936000,000003C3,false,Rx,0,6,00,02,00,00,00,0E,00,00,
77937000,00000113,false,Rx,1,8,11,00,00,00,00,00,00,00,
77939000,00000123,false,Rx,1,8,14,10,14,10,16,10,40,CC,
77941001,00000133,false,Rx,1,8,15,10,EC,0F,16,10,40,26,
77943001,00000143,false,Rx,1,8,0D,10,16,10,16,10,40,6A,
77945001,00000106,false,Rx,1,8,00,00,00,00,00,00,D0,E4,
77946000,000003C3,false,Rx,0,6,00,03,FF,FF,FF,E5,00,00,
77947000,00000105,false,Rx,1,8,00,00,00,00,00,00,D0,4B,
77948000,00000083,false,Rx,1,8,C7,10,00,50,00,00,70,52,
77949000,00000173,false,Rx,1,8,32,32,32,32,3F,00,40,78,
77951000,00000102,false,Rx,1,8,00,00,00,00,00,00,D0,6D,
77953001,00000103,false,Rx,1,8,00,00,00,00,00,00,D0,08,
77955000,00000101,false,Rx,1,8,00,00,00,00,00,00,D0,C2,
77956000,000003C3,false,Rx,0,6,00,04,FF,FF,FF,F2,00,00,
77957000,00000115,false,Rx,1,8,11,00,00,00,00,00,00,00,
77959000,00000100,false,Rx,1,8,00,00,00,00,00,00,B0,33,
77961000,00000084,false,Rx,1,8,C7,10,00,50,00,00,70,74,
77961002,00000125,false,Rx,1,8,19,10,1E,10,1A,10,40,C0,
77963000,00000135,false,Rx,1,8,18,10,10,10,16,10,40,9F,
77965000,00000116,false,Rx,1,8,11,00,00,00,00,00,00,00,
77966000,000003C3,false,Rx,0,6,00,05,FF,FF,FF,EB,00,00,
77967000,00000145,false,Rx,1,8,1A,10,1B,10,16,10,40,B6,
77969000,00000155,false,Rx,1,8,19,10,18,10,09,10,40,6F,
77971001,00000165,false,Rx,1,8,1F,C1,00,00,00,00,40,B7,
77973000,00000175,false,Rx,1,8,31,31,31,31,3C,00,40,9E,
77974001,00000085,false,Rx,1,8,C7,10,00,50,00,00,70,11,
77975000,00000126,false,Rx,1,8,11,10,16,10,12,10,40,C6,
77976000,000003C3,false,Rx,0,6,00,06,FF,FF,FF,F6,00,00,
77977000,00000136,false,Rx,1,8,10,10,12,10,0C,10,40,21,
77979000,00000146,false,Rx,1,8,16,10,16,10,18,10,40,03,
77981001,00000156,false,Rx,1,8,0D,10,14,10,16,10,40,4C,
77983000,00000166,false,Rx,1,8,F8,C0,00,00,00,00,40,C0,
77985000,00000176,false,Rx,1,8,32,32,32,32,3D,00,40,97,
77986000,000003C3,false,Rx,0,6,00,07,FF,FF,FF,F6,00,00,
77987000,00000117,false,Rx,1,8,11,00,00,00,00,00,00,00,
77987001,00000086,false,Rx,1,8,C7,10,00,50,00,00,70,BE,
77989000,00000127,false,Rx,1,8,F8,0F,F9,0F,F4,0F,40,23,
77989003,00000437,false,Rx,2,8,01,00,00,00,6C,02,0D,8B,
77991000,00000137,false,Rx,1,8,F5,0F,F7,0F,F4,0F,40,CD,
77993000,00000147,false,Rx,1,8,F6,0F,F2,0F,F7,0F,40,23,
77995000,00000157,false,Rx,1,8,F7,0F,F7,0F,F6,0F,40,30,
77997000,00000167,false,Rx,1,8,77,BF,00,00,00,00,40,F1,
77999001,00000107,false,Rx,1,8,00,00,00,00,00,00,E0,CB,
78000001,00000087,false,Rx,1,8,C7,10,00,50,00,00,70,DB,
78001000,000003C3,false,Rx,0,6,00,08,FF,FF,FF,E6,00,00,
78001001,00000106,false,Rx,1,8,00,00,00,00,00,00,E0,AE,
78001010,0000041A,false,Rx,2,8,7E,0D,87,13,CB,CE,05,10,
78001018,0000041B,false,Rx,2,8,31,32,00,05,2F,75,05,F6,
78001019,0000041C,false,Rx,2,8,F4,01,00,00,07,18,05,3C,
78001020,0000041D,false,Rx,2,8,45,25,10,27,00,02,05,F0,
78001021,0000041E,false,Rx,2,8,00,00,00,00,02,6C,05,3D,
78003000,00000105,false,Rx,1,8,00,00,00,00,00,00,E0,01,
78005000,00000110,false,Rx,1,8,11,00,00,00,00,00,00,00,
78006000,000003D2,false,Rx,0,6,04,0C,00,00,00,69,00,00,
78007000,00000102,false,Rx,1,8,00,00,00,00,00,00,E0,27,
78009000,00000103,false,Rx,1,8,00,00,00,00,00,00,E0,42,
78011000,000003C3,false,Rx,0,6,00,09,FF,FF,FF,EA,00,00,
78011001,00000120,false,Rx,1,8,15,10,1A,10,1A,10,40,22,
78013000,00000150,false,Rx,1,8,09,10,1E,10,19,10,40,43,
78013004,00000080,false,Rx,1,8,C7,10,00,50,00,00,80,82,
78015000,00000170,false,Rx,1,8,32,32,32,32,42,00,40,1A,
78016000,000003C3,false,Rx,0,6,00,0A,FF,FF,FF,F0,00,00,
78017000,00000111,false,Rx,1,8,11,00,00,00,00,00,00,00,
78019000,00000121,false,Rx,1,8,18,10,1A,10,16,10,50,66,
78021001,00000131,false,Rx,1,8,16,10,13,10,15,10,50,E8,
78023000,00000141,false,Rx,1,8,16,10,19,10,15,10,50,11,
78025000,00000161,false,Rx,1,8,32,C1,00,00,00,00,50,7A,
78026000,000003C3,false,Rx,0,6,00,0B,FF,FF,FF,E3,00,00,
78026001,00000081,false,Rx,1,8,C7,10,00,50,00,00,80,E7,
78027000,00000171,false,Rx,1,8,32,32,32,32,3E,00,50,F0,
78029000,00000100,false,Rx,1,8,00,00,00,00,00,00,C0,6A,
78031000,00000112,false,Rx,1,8,11,00,00,00,00,00,00,00,
78033000,00000132,false,Rx,1,8,0A,10,0A,10,0F,10,50,A1,
78035000,00000152,false,Rx,1,8,0C,10,10,10,13,10,50,69,
78036000,000003C3,false,Rx,0,6,00,0C,FF,FF,FF,FA,00,00,
78037000,00000172,false,Rx,1,8,31,32,31,32,3E,00,50,06,
78039000,00000113,false,Rx,1,8,11,00,00,00,00,00,00,00,
78039002,00000082,false,Rx,1,8,C7,10,00,50,00,00,80,48,
78041000,00000123,false,Rx,1,8,14,10,14,10,16,10,50,01,
78043000,00000133,false,Rx,1,8,15,10,EE,0F,16,10,50,3F,
78045000,00000143,false,Rx,1,8,0D,10,16,10,16,10,50,A7,
78046000,000003C3,false,Rx,0,6,00,0D,FF,FF,FF,F1,00,00,
78047000,00000153,false,Rx,1,8,1A,10,16,10,13,10,50,07,
78049000,00000163,false,Rx,1,8,BA,C0,00,00,00,00,50,85,
78051001,00000106,false,Rx,1,8,00,00,00,00,00,00,00,1C,
78052000,00000083,false,Rx,1,8,C7,10,00,50,00,00,80,2D,
78053000,00000107,false,Rx,1,8,00,00,00,00,00,00,00,79,
78055000,00000105,false,Rx,1,8,00,00,00,00,00,00,00,B3,
78056000,000003C3,false,Rx,0,6,00,0E,FF,FF,FF,FA,00,00,
78057000,00000102,false,Rx,1,8,00,00,00,00,00,00,00,95,
78059000,00000103,false,Rx,1,8,00,00,00,00,00,00,00,F0,
78061001,00000101,false,Rx,1,8,00,00,00,00,00,00,00,3A,
78063000,000001D0,false,Rx,1,8,22,22,22,22,22,22,29,92,
78065000,00000115,false,Rx,1,8,11,00,00,00,00,00,00,00,
78065002,00000084,false,Rx,1,8,C7,10,00,50,00,00,80,0B,
78066000,000003C3,false,Rx,0,6,00,0F,00,00,00,07,00,00,
78067000,00000100,false,Rx,1,8,00,00,00,00,00,00,D0,A7,
78069000,00000125,false,Rx,1,8,19,10,1E,10,1A,10,50,0D,
78071000,00000135,false,Rx,1,8,18,10,10,10,18,10,50,5B,
78073000,00000116,false,Rx,1,8,11,00,00,00,00,00,00,00,
78075000,00000145,false,Rx,1,8,1A,10,1B,10,15,10,50,F7,
78076000,000003C3,false,Rx,0,6,00,00,FF,FF,FF,EA,00,00,
78077000,00000155,false,Rx,1,8,19,10,18,10,09,10,50,A2,
78078000,00000085,false,Rx,1,8,C7,10,00,50,00,00,80,6E,
78079000,00000165,false,Rx,1,8,1F,C1,00,00,00,00,50,7A,
78081000,00000175,false,Rx,1,8,31,31,31,31,3C,00,50,53,
78083000,00000126,false,Rx,1,8,0F,10,16,10,10,10,50,B0,
78085000,00000136,false,Rx,1,8,10,10,12,10,0C,10,50,EC,
78086000,000003C3,false,Rx,0,6,00,01,00,00,00,00,00,00,
78087000,000001D7,false,Rx,1,8,22,22,22,22,22,22,29,92,
78089000,00000146,false,Rx,1,8,16,10,16,10,16,10,50,C7,
78089003,000003D8,false,Rx,2,3,91,02,00,00,00,00,00,00,
78091000,00000156,false,Rx,1,8,0D,10,14,10,16,10,50,81,
78091003,00000086,false,Rx,1,8,C7,10,00,50,00,00,80,C1,
78091004,00000437,false,Rx,2,8,01,00,00,00,6C,02,0E,02,
78093001,00000166,false,Rx,1,8,E5,C0,00,00,00,00,50,52,
78095000,00000176,false,Rx,1,8,32,32,32,32,3E,00,50,D6,
78097000,00000117,false,Rx,1,8,11,00,00,00,00,00,00,00,
78099000,000001C0,false,Rx,1,8,22,22,22,22,25,22,42,22,
78101000,000003C3,false,Rx,0,6,00,02,00,00,00,01,00,00,
78101002,000001D2,false,Rx,1,8,22,22,22,22,22,22,29,92,
78101009,0000041A,false,Rx,2,8,7E,0D,88,13,CB,CE,06,BF,
78101016,0000041B,false,Rx,2,8,31,32,00,04,30,75,06,78,
78101017,0000041C,false,Rx,2,8,F4,01,00,00,07,18,06,B5,
78101019,0000041D,false,Rx,2,8,45,25,10,27,00,02,06,79,
78101020,0000041E,false,Rx,2,8,00,00,00,00,02,6C,06,B4,
78103000,00000127,false,Rx,1,8,F8,0F,F8,0F,F4,0F,50,84,
78104001,00000087,false,Rx,1,8,C7,10,00,50,00,00,80,A4,
78105000,00000137,false,Rx,1,8,F5,0F,F5,0F,F4,0F,50,D4,
78106000,000003D2,false,Rx,0,6,04,0D,00,00,00,69,00,00,
78107000,00000157,false,Rx,1,8,F7,0F,F7,0F,F6,0F,50,FD,
78109000,00000107,false,Rx,1,8,00,00,00,00,00,00,10,B4,
78111000,000003C3,false,Rx,0,6,00,03,FF,FF,FF,FE,00,00,
78111001,00000105,false,Rx,1,8,00,00,00,00,00,00,10,7E,
78113000,00000120,false,Rx,1,8,15,10,1A,10,1A,10,50,EF,
78115000,00000140,false,Rx,1,8,17,10,17,10,18,10,50,BA,
78116000,000003C3,false,Rx,0,6,00,04,FF,FF,FF,F6,00,00,
78117000,00000150,false,Rx,1,8,09,10,1E,10,1B,10,50,8D,
78117003,00000080,false,Rx,1,8,C7,10,00,50,00,00,90,4F,
78119000,00000170,false,Rx,1,8,32,32,32,32,42,00,50,D7,
78121000,00000111,false,Rx,1,8,11,00,00,00,00,00,00,00,
78123000,00000121,false,Rx,1,8,1A,10,1A,10,17,10,60,19,
78125000,00000131,false,Rx,1,8,18,10,13,10,13,10,60,A6,
78126000,000003C3,false,Rx,0,6,00,05,FF,FF,FF,EC,00,00,
78127000,00000151,false,Rx,1,8,17,10,19,10,13,10,60,1D,
78129000,000001C6,false,Rx,1,8,22,22,22,22,25,22,42,22,
78130001,00000081,false,Rx,1,8,C7,10,00,50,00,00,90,2A,
78131000,000001C5,false,Rx,1,8,22,22,22,22,25,22,42,22,
78133000,000001C2,false,Rx,1,8,22,22,22,22,25,22,42,22,
78135000,00000112,false,Rx,1,8,11,00,00,00,00,00,00,00,
78136000,000003C3,false,Rx,0,6,00,06,00,00,00,01,00,00,
78137000,00000122,false,Rx,1,8,0F,10,12,10,0F,10,60,58,
78139000,00000152,false,Rx,1,8,0C,10,10,10,14,10,60,A9,
78141001,00000171,false,Rx,1,8,32,32,32,32,3E,00,60,BA,
78143000,00000172,false,Rx,1,8,31,32,31,32,3E,00,60,4C,
78143003,00000082,false,Rx,1,8,C7,10,00,50,00,00,90,85,
78145001,00000113,false,Rx,1,8,11,00,00,00,00,00,00,00,
78146000,000003C3,false,Rx,0,6,00,07,FF,FF,FF,EA,00,00,
78147000,00000123,false,Rx,1,8,14,10,14,10,16,10,60,4B,
78149000,00000133,false,Rx,1,8,15,10,EC,0F,16,10,60,A1,
78151000,00000143,false,Rx,1,8,0F,10,16,10,16,10,60,57,
78153000,00000163,false,Rx,1,8,BA,C0,00,00,00,00,60,CF,
78155000,00000173,false,Rx,1,8,32,32,32,32,40,00,60,31,
78156000,000003C3,false,Rx,0,6,00,08,FF,FF,FF,E5,00,00,
78156001,00000083,false,Rx,1,8,C7,10,00,50,00,00,90,E0,
78157000,00000106,false,Rx,1,8,00,00,00,00,00,00,20,9B,
78159000,00000107,false,Rx,1,8,00,00,00,00,00,00,20,FE,
78161001,00000105,false,Rx,1,8,00,00,00,00,00,00,20,34,
78163000,00000102,false,Rx,1,8,00,00,00,00,00,00,20,12,
78165000,00000103,false,Rx,1,8,00,00,00,00,00,00,20,77,
78166000,000003C3,false,Rx,0,6,00,09,FF,FF,FF,EA,00,00,
78167000,00000101,false,Rx,1,8,00,00,00,00,00,00,20,BD,
78169000,00000115,false,Rx,1,8,11,00,00,00,00,00,00,00,
78169002,00000084,false,Rx,1,8,C7,10,00,50,00,00,90,C6,
78171000,00000125,false,Rx,1,8,19,10,1E,10,1A,10,60,47,
78173000,00000135,false,Rx,1,8,18,10,10,10,18,10,60,11,
78175000,00000145,false,Rx,1,8,1A,10,1A,10,15,10,60,D7,
78176000,000003C3,false,Rx,0,6,00,0A,FF,FF,FF,FC,00,00,
78177000,00000100,false,Rx,1,8,00,00,00,00,00,00,00,5F,
78179000,00000155,false,Rx,1,8,19,10,18,10,09,10,60,E8,
78181001,00000116,false,Rx,1,8,11,00,00,00,00,00,00,00,
78182000,00000085,false,Rx,1,8,C7,10,00,50,00,00,90,A3,
